```
@'s password:
Linux raspberrypi 

The programs included with the Debian GNU/Linux system are free software;
the exact distribution terms for each program are described in the
individual files in /usr/share/doc/*/copyright.

Debian GNU/Linux comes with ABSOLUTELY NO WARRANTY, to the extent
permitted by applicable law.
pi@raspberrypi:~ $ candump can0, 7A6:1fffffff,7AE:1fffffff -caex -s 0 -l &
[1] 2957
pi@raspberrypi:~ $ Error in filter option parsing: ''
pi@raspberrypi:~ $ candump can0,7A6:1fffffff,7AE:1fffffff -caex -s 0 -l &
[2] 2978
[1]   Exit 1                  candump can0, 7A6:1fffffff,7AE:1fffffff -caex -s 0 -l
pi@raspberrypi:~ $

Warning: console output active while logging! 
  can0  TX - -  7A6   [8]  02 21 00 00 00 00 00 00   '.!......'
  can0  RX - -  7AE   [8]  10 13 61 00 36 46 50 41   '..a.6FPA'
 
  can0  TX - -  7A6   [8]  02 21 00 00 00 00 00 00   '.!......'
  can0  RX - -  7AE   [8]  10 13 61 00 36 46 50 41   '..a.6FPA' 
 
  can0  TX - -  7A6   [8]  02 21 01 00 00 00 00 00   '.!......'
  can0  RX - -  7AE   [8]  03 61 01 16 00 00 00 00   '.a......'
 
  can0  TX - -  7A6   [8]  02 21 02 00 00 00 00 00   '.!......'
  can0  RX - -  7AE   [8]  03 7F 21 31 00 00 00 00   '..!1....'

  can0  TX - -  7A6   [8]  02 21 03 00 00 00 00 00   '.!......'
  can0  RX - -  7AE   [8]  03 7F 21 31 00 00 00 00   '..!1....' 
 
  can0  TX - -  7A6   [8]  02 21 00 00 00 00 00 00   '.!......'
  can0  RX - -  7AE   [8]  10 13 61 00 36 46 50 41   '..a.6FPA'
 
  can0  TX - -  7A6   [8]  02 21 01 00 00 00 00 00   '.!......'
  can0  RX - -  7AE   [8]  03 61 01 16 00 00 00 00   '.a......'
 
  can0  TX - -  7A6   [8]  02 21 01 02 00 00 00 00   '.!......'
  can0  RX - -  7AE   [8]  03 61 01 16 00 00 00 00   '.a......

  can0  TX - -  7A6   [8]  02 21 01 04 00 00 00 00   '.!......'
  can0  RX - -  7AE   [8]  03 61 01 16 00 00 00 00   '.a......'
 
 =an0  TX - -  7A6   [8]  02 23 01 02 00 00 00 00   '.#......'
  can0  RX - -  7AE   [8]  03 7F 23 11 00 00 00 00   '..#.....'
 
  can0  TX - -  7A6   [8]  01 34 00 00 00 00 00 00   '.4......'
  can0  RX - -  7AE   [8]  03 7F 34 22 00 00 00 00   '..4"....'
 
  can0  RX - -  7A6   [8]  01 35 00 00 00 00 00 00   '.5......'
  can0  RX - -  7AE   [8]  03 7F 35 11 00 00 00 00   '..5.....'
 
  can0  RX - -  7A6   [8]  01 36 00 00 00 00 00 00   '.6......'
  can0  RX - -  7AE   [8]  03 7F 36 22 00 00 00 00   '..6"....'
 
  can0  TX - -  7A6   [8]  01 37 00 00 00 00 00 00   '.7......'
  can0  RX - -  7AE   [8]  03 7F 37 22 00 00 00 00   '..7"....'

  can0  TX - -  7A6   [7]  01 39 00 00 00 00 00      '.9.....'
 
  can0  TX - -  7A6   [3]  02 85 01                  '...'
  can0  TX - -  7A6   [7]  02 85 01 00 00 00 00      '.......'
 
  can0  TX - -  7A6   [7]  02 27 01 00 00 00 00      '.'.....'
  can0  TX - -  7A6   [7]  02 10 87 00 00 00 00      '.......'
  can0  TX - -  7A6   [8]  02 10 87 00 00 00 00 00   '........'
  can0  RX - -  7AE   [8]  02 50 87 00 00 00 00 00   '.P......'
  can0  TX - -  7A6   [8]  02 27 01 00 00 00 00 00   '.'......'
  can0  RX - -  7AE   [8]  05 67 01 72 C3 2B 00 00   '.g.r.+..'
  can0  TX - -  7A6   [8]  02 10 87 00 00 00 00 00   '........'
  can0  RX - -  7AE   [8]  02 50 87 00 00 00 00 00   '.P......'
  can0  TX - -  7A6   [8]  02 27 01 00 00 00 00 00   '.'......'
  can0  RX - -  7AE   [8]  05 67 01 4C 4F 8B 00 00   '.g.LO...'
  can0  TX - -  7A6   [8]  05 27 02 7E 9E ED 00 00   '.'.~....'
  can0  RX - -  7AE   [8]  02 67 02 00 00 00 00 00   '.g......'
  can0  TX - -  7A6   [8]  02 10 85 00 00 00 00 00   '........'
  can0  RX - -  7AE   [8]  02 50 85 00 00 00 00 00   '.P......'
  can0  TX - -  7A6   [8]  02 10 87 00 00 00 00 00   '........'
  can0  RX - -  7AE   [8]  02 50 87 00 00 00 00 00   '.P......'
  
  can0  TX - -  7A6   [8]  02 20 87 00 00 00 00 00   '. ......'
  can0  RX - -  7AE   [8]  03 7F 20 11 00 00 00 00   '.. .....'
  can0  TX - -  7A6   [8]  03 21 00 01 00 00 00 00   '.!......'
  can0  RX - -  7AE   [8]  03 7F 21 12 00 00 00 00   '..!.....'
  <!-- ping the module with 11 D1 and it responds with the sessionType its in-->
  
  can0  TX - -  7A6   [8]  03 22 D1 00 00 00 00 00   '."......'
  can0  RX - -  7AE   [8]  04 62 D1 00 81 00 00 00   '.b......'
  
  can0  TX - -  7A6   [8]  02 10 87 00 00 00 00 00   '........'
  can0  RX - -  7AE   [8]  02 50 87 00 00 00 00 00   '.P......'
  
  can0  TX - -  7A6   [8]  03 22 D1 00 00 00 00 00   '."......'
  can0  RX - -  7AE   [8]  04 62 D1 00 87 00 00 00   '.b......'
  
  can0  TX - -  7A6   [8]  02 10 87 00 00 00 00 00   '........'
  can0  RX - -  7AE   [8]  02 50 87 00 00 00 00 00   '.P......'
  
  can0  TX - -  7A6   [8]  02 27 01 00 00 00 00 00   '.'......'
  can0  RX - -  7AE   [8]  05 67 01 89 5A A9 00 00   '.g..Z...'
  
  can0  TX - -  7A6   [8]  02 10 87 00 00 00 00 00   '........'
  can0  RX - -  7AE   [8]  02 50 87 00 00 00 00 00   '.P......'
  
  can0  TX - -  7A6   [8]  02 27 01 00 00 00 00 00   '.'......'
  can0  RX - -  7AE   [8]  05 67 01 3E E6 6E 00 00   '.g.>.n..'
  
  can0  TX - -  7A6   [8]  02 10 87 00 00 00 00 00   '........'
  can0  RX - -  7AE   [8]  02 50 87 00 00 00 00 00   '.P......'
  
  can0  TX - -  7A6   [8]  02 27 01 00 00 00 00 00   '.'......'
  can0  RX - -  7AE   [8]  05 67 01 77 D7 4C 00 00   '.g.w.L..'
  can0  TX - -  7A6   [8]  05 27 02 F0 B0 6F 00 00   '.'...o..'
  can0  RX - -  7AE   [8]  02 67 02 00 00 00 00 00   '.g......'
  
  can0  RX - -  7A6   [8]  04 31 02 00 00 00 00 00   '.1......'
  can0  RX - -  7AE   [8]  03 7F 31 12 00 00 00 00   '..1.....'
  
  can0  TX - -  7A6   [8]  03 31 02 00 00 00 00 00   '.1......'
  can0  RX - -  7AE   [8]  02 71 02 00 00 00 00 00   '.q......'
  
  can0  TX - -  7A6   [8]  03 31 02 01 00 00 00 00   '.1......'
  can0  RX - -  7AE   [8]  03 7F 31 31 00 00 00 00   '..11....'
  can0  TX - -  7A6   [8]  03 33 02 00 00 00 00 00   '.3......'
  can0  RX - -  7AE   [8]  03 7F 33 12 00 00 00 00   '..3.....'
  can0  TX - -  7A6   [8]  03 33 02 00 00 00 00 00   '.3......'
  can0  RX - -  7AE   [8]  03 7F 33 12 00 00 00 00   '..3.....'
  can0  TX - -  7A6   [8]  04 33 02 00 00 00 00 00   '.3......'
  can0  RX - -  7AE   [8]  03 7F 33 12 00 00 00 00   '..3.....'
  
  can0  TX - -  7A6   [8]  04 18 00 FF 00 00 00 00   '........'
  can0  RX - -  7AE   [8]  05 58 01 93 42 20 00 00   '.X..B ..'
  
  can0  RX - -  7A6   [8]  03 14 00 FF 00 00 00 00   '........'
  can0  RX - -  7AE   [8]  03 7F 14 31 00 00 00 00   '...1....'
  
  can0  TX - -  7A6   [8]  03 14 FF 00 00 00 00 00   '........'
  can0  RX - -  7AE   [8]  03 54 FF 00 00 00 00 00   '.T......'
  
  can0  TX - -  7A6   [8]  04 18 00 FF 00 00 00 00   '........'
  can0  RX - -  7AE   [8]  02 58 00 00 00 00 00 00   '.X......'
  
  can0  TX - -  7A6   [8]  04 33 02 00 00 00 00 00   '.3......'
  can0  RX - -  7AE   [8]  03 7F 33 12 00 00 00 00   '..3.....'

  can0  TX - -  7A6   [8]  03 31 03 00 00 00 00 00   '.1......'
  can0  RX - -  7AE   [8]  03 7F 31 31 00 00 00 00   '..11....'

  can0  TX - -  7A6   [8]  03 31 01 00 00 00 00 00   '.1......'
  can0  RX - -  7AE   [8]  03 7F 31 31 00 00 00 00   '..11....'
  
  can0  TX - -  7A6   [8]  03 31 11 00 00 00 00 00   '.1......'
  can0  RX - -  7AE   [8]  02 71 11 00 00 00 00 00   '.q......'

  can0  TX - -  7A6   [8]  03 31 11 00 00 00 00 00   '.1......'
  can0  RX - -  7AE   [8]  02 71 11 00 00 00 00 00   '.q......'

  can0  TX - -  7A6   [8]  03 31 12 00 00 00 00 00   '.1......'
  can0  RX - -  7AE   [8]  03 7F 31 31 00 00 00 00   '..11....'

pi@raspberrypi:~ $   can0  TX - -  7A6   [8]  04 18 00 FF 00 00 00 00   '........'
  can0  RX - -  7AE   [8]  02 58 00 00 00 00 00 00   '.X......'

  can0  TX - -  7A6   [8]  03 31 22 00 00 00 00 00   '.1".....'
  can0  RX - -  7AE   [8]  03 7F 31 31 00 00 00 00   '..11....'

  can0  TX - -  7A6   [8]  04 31 01 01 00 00 00 00   '.1......'
  can0  RX - -  7AE   [8]  03 7F 31 12 00 00 00 00   '..1.....'

  can0  TX - -  7A6   [8]  04 31 10 01 00 00 00 00   '.1......'
  can0  RX - -  7AE   [8]  03 7F 31 12 00 00 00 00   '..1.....'

  can0  TX - -  7A6   [8]  04 31 10 00 00 00 00 00   '.1......'
  can0  RX - -  7AE   [8]  03 7F 31 12 00 00 00 00   '..1.....'

  can0  TX - -  7A6   [8]  03 31 10 00 00 00 00 00   '.1......'
  can0  RX - -  7AE   [8]  03 7F 31 31 00 00 00 00   '..11....'

  can0  RX - -  7A6   [8]  03 31 0A 00 00 00 00 00   '.1......'
  can0  RX - -  7AE   [8]  03 7F 31 31 00 00 00 00   '..11....'

  can0  TX - -  7A6   [8]  03 31 0B 00 00 00 00 00   '.1......'
  can0  RX - -  7AE   [8]  03 7F 31 31 00 00 00 00   '..11....'

  can0  TX - -  7A6   [8]  03 31 FF 00 00 00 00 00   '.1......'
  can0  RX - -  7AE   [8]  03 7F 31 31 00 00 00 00   '..11....'

  can0  TX - -  7A6   [8]  03 31 FA 00 00 00 00 00   '.1......'
  can0  RX - -  7AE   [8]  03 7F 31 31 00 00 00 00   '..11....'

  can0  RX - -  7A6   [8]  03 31 F1 00 00 00 00 00   '.1......'
  can0  RX - -  7AE   [8]  03 7F 31 31 00 00 00 00   '..11....'

  can0  TX - -  7A6   [8]  03 31 B1 00 00 00 00 00   '.1......'
  can0  RX - -  7AE   [8]  03 7F 31 31 00 00 00 00   '..11....'

  can0  TX - -  7A6   [8]  02 B1 01 00 00 00 00 00   '........'
  can0  RX - -  7AE   [8]  03 7F B1 11 00 00 00 00   '........'

  can0  TX - -  7A6   [8]  03 B1 01 00 00 00 00 00   '........'
  can0  RX - -  7AE   [8]  03 7F B1 11 00 00 00 00   '........'

  can0  TX - -  7A6   [8]  02 B1 01 00 00 00 00 00   '........'
  can0  RX - -  7AE   [8]  03 7F B1 11 00 00 00 00   '........'

  can0  TX - -  7A6   [8]  02 B2 00 00 00 00 00 00   '........'
  can0  RX - -  7AE   [8]  03 7F B2 11 00 00 00 00   '........'

  can0  TX - -  7A6   [8]  02 85 01 00 00 00 00 00   '........'
  can0  RX - -  7AE   [8]  02 C5 01 00 00 00 00 00   '........'

  can0  TX - -  7A6   [8]  02 85 11 00 00 00 00 00   '........'
  can0  RX - -  7AE   [8]  03 7F 85 12 00 00 00 00   '........'

client_loop: send disconnect: Connection reset
The programs included with the Debian GNU/Linux system are free software;
the exact distribution terms for each program are described in the
individual files in /usr/share/doc/*/copyright.

Debian GNU/Linux comes with ABSOLUTELY NO WARRANTY, to the extent
permitted by applicable law.
Last login:
pi@raspberrypi:~ $ candump can0,7A6:1FFFFFFF,7AE:1FFFFFFF,720:1FFFFFFF,728:1FFFFFFF -caex -s 0 -l &
[1] 5282
pi@raspberrypi:~ $


Warning: console output active while logging! 
 
 
 
  can0  TX - -  7A6   [8]  02 10 87 00 00 00 00 00   '........'
  can0  RX - -  7AE   [8]  02 50 87 00 00 00 00 00   '.P......' 
 
  can0  TX - -  7A6   [8]  02 85 01 00 00 00 00 00   '........'
  can0  RX - -  7AE   [8]  02 C5 01 00 00 00 00 00   '........'

  can0  TX - -  7A6   [8]  04 18 00 FF 00 00 00 00   '........'
  can0  RX - -  7AE   [8]  02 58 00 00 00 00 00 00   '.X......'
   
  can0  TX - -  7A6   [8]  03 14 FF 00 00 00 00 00   '........'
  can0  RX - -  7AE   [8]  03 54 FF 00 00 00 00 00   '.T......'
 
  can0  TX - -  7A6   [8]  03 31 01 00 00 00 00 00   '.1......'
  can0  RX - -  7AE   [8]  03 7F 31 31 00 00 00 00   '..11....'
  
  can0  RX - -  7A6   [8]  04 31 01 00 00 00 00 00   '.1......'
  can0  RX - -  7AE   [8]  03 7F 31 12 00 00 00 00   '..1.....'
 
  can0  TX - -  7A6   [8]  04 31 02 00 00 00 00 00   '.1......'
  can0  RX - -  7AE   [8]  03 7F 31 12 00 00 00 00   '..1.....'
 
  can0  TX - -  7A6   [8]  03 31 02 00 00 00 00 00   '.1......'
  can0  RX - -  7AE   [8]  02 71 02 00 00 00 00 00   '.q......'
 
  can0  TX - -  7A6   [8]  03 31 05 00 00 00 00 00   '.1......'
  can0  RX - -  7AE   [8]  03 7F 31 31 00 00 00 00   '..11....'
 
  can0  TX - -  7A6   [8]  03 31 06 00 00 00 00 00   '.1......'
  can0  RX - -  7AE   [8]  03 7F 31 31 00 00 00 00   '..11....'
 
  can0  TX - -  7A6   [8]  03 31 07 00 00 00 00 00   '.1......'
  can0  RX - -  7AE   [8]  03 7F 31 31 00 00 00 00   '..11....'

  can0  RX - -  7A6   [8]  03 31 08 00 00 00 00 00   '.1......'
  can0  RX - -  7AE   [8]  03 7F 31 31 00 00 00 00   '..11....' 
 
  can0  RX - -  7A6   [8]  03 31 09 00 00 00 00 00   '.1......'
  can0  RX - -  7AE   [8]  03 7F 31 31 00 00 00 00   '..11....'
 
  can0  TX - -  7A6   [8]  03 31 0A 00 00 00 00 00   '.1......'
  can0  RX - -  7AE   [8]  03 7F 31 31 00 00 00 00   '..11....'
 
logout

The programs included with the Debian GNU/Linux system are free software;
the exact istribution terms for each program are described in the
individual files in /usr/share/doc/*/copyright.

Debian GNU/Linux comes with ABSOLUTELY NO WARRANTY, to the extent
permitted by applicable law.
Last login:
pi@raspberrypi:~ $ candump can0,7A6:1FFFFFFF,7AE:1FFFFFFF,720:1FFFFFFF,728:1FFFFFFF -caex -s 0 -l &client_loop: send disconnect: Connection reset

The programs included with the Debian GNU/Linux system are free software;
the exact distribution terms for each program are described in the
individual files in /usr/share/doc/*/copyright.

Debian GNU/Linux comes with ABSOLUTELY NO WARRANTY, to the extent
permitted by applicable law.

pi@raspberrypi:~ $ candump can0,7A6:1FFFFFFF,7AE:1FFFFFFF,720:1FFFFFFF,728:1FFFFFFF -caex -s 0 -l &
[1] 5886
pi@raspberrypi:~ $

Warning: console output active while logging! 
 
  can0  TX - -  7A6   [8]  02 10 87 00 00 00 00 00   '........'
  can0  RX - -  7AE   [8]  02 50 87 00 00 00 00 00   '.P......'
 
  can0  TX - -  7A6   [8]  02 85 01 00 00 00 00 00   '........'
  can0  RX - -  7AE   [8]  02 C5 01 00 00 00 00 00   '........'
 
  can0  RX - -  7A6   [8]  02 2F 01 00 00 00 00 00   './......'
  can0  RX - -  7AE   [8]  03 7F 2F 12 00 00 00 00   '../.....'
 
pi@raspberrypi:~ $  
 
candump can0,7A6:1FFFFFFF,7AE:1FFFFFFF,720:1FFFFFFF,728:1FFFFFFF -caex -s 0 -l &   
  can0  TX - -  7A6   [8]  04 2F 00 01 00 00 00 00   './......'
  can0  RX - -  7AE   [8]  03 7F 2F 31 00 00 00 00   '../1....'
  
  can0  TX - -  7A6   [8]  04 2F 02 00 00 00 00 00   './......'
  can0  RX - -  7AE   [8]  03 7F 2F 31 00 00 00 00   '../1....'
 
  can0  TX - -  7A6   [8]  05 2F 00 00 01 00 00 00   './......'
  can0  RX - -  7AE   [8]  03 7F 2F 31 00 00 00 00   '../1....'
 
  can0  TX - -  7A6   [8]  02 20 00 00 00 00 00 00   '. ......'
  can0  RX - -  7AE   [8]  03 7F 20 11 00 00 00 00   '.. .....'
 
  can0  RX - -  7A6   [8]  01 20 00 00 00 00 00 00   '. ......'
  can0  RX - -  7AE   [8]  03 7F 20 11 00 00 00 00   '.. .....'
 
  can0  RX - -  7A6   [8]  02 20 02 00 00 00 00 00   '. ......'
  can0  RX - -  7AE   [8]  03 7F 20 11 00 00 00 00   '.. .....'
 
  can0  TX - -  7A6   [8]  03 20 02 00 00 00 00 00   '. ......'
  can0  RX - -  7AE   [8]  03 7F 20 11 00 00 00 00   '.. .....'

   can0  TX - -  7A6   [8]  03 19 00 00 00 00 00 00   '........'
   can0  RX - -  7AE   [8]  03 7F 19 11 00 00 00 00   '........'
 
   can0  TX - -  7A6   [8]  01 41 00 00 00 00 00 00   '.A......'
   can0  RX - -  7AE   [8]  03 7F 41 11 00 00 00 00   '..A.....'
 
  can0  TX - -  7A6   [8]  01 42 00 00 00 00 00 00   '.B......'
  can0  RX - -  7AE   [8]  03 7F 42 11 00 00 00 00   '..B.....'

  can0  RX - -  7A6   [8]  01 43 00 00 00 00 00 00   '.C......'
  can0  RX - -  7AE   [8]  03 7F 43 11 00 00 00 00   '..C.....'
 
 can0  RX - -  7A6   [8]  01 BA 00 00 00 00 00 00   '........'
  can0  RX - -  7AE   [8]  03 7F BA 11 00 00 00 00   '........'
 
  can0  TX - -  7A6   [8]  01 BB 00 00 00 00 00 00   '........'
  can0  RX - -  7AE   [8]  03 7F BB 11 00 00 00 00   '........'
 
  can0  TX - -  7A6   [8]  01 BD 00 00 00 00 00 00   '........'
  can0  RX - -  7AE   [8]  03 7F BD 11 00 00 00 00   '........'
 
  can0  TX - -  7A6   [8]  01 B2 00 00 00 00 00 00   '........'
  can0  RX - -  7AE   [8]  03 7F B2 11 00 00 00 00   '........'
 
  can0  TX - -  7A6   [8]  01 B3 00 00 00 00 00 00   '........'
  can0  RX - -  7AE   [8]  03 7F B3 11 00 00 00 00   '........'
 
  can0  TX - -  7A6   [8]  01 B4 00 00 00 00 00 00   '........'
  can0  RX - -  7AE   [8]  03 7F B4 11 00 00 00 00   '........'
 
  can0  TX - -  7A6   [8]  01 A1 00 00 00 00 00 00   '........'
  can0  RX - -  7AE   [8]  03 7F A1 11 00 00 00 00   '........'

  can0  TX - -  7A6   [8]  02 A1 00 00 00 00 00 00   '........'
  can0  RX - -  7AE   [8]  03 7F A1 11 00 00 00 00   '........'
 
  can0  RX - -  7A6   [8]  02 A2 00 00 00 00 00 00   '........'
  can0  RX - -  7AE   [8]  03 7F A2 11 00 00 00 00   '........'
 
  can0  TX - -  7A6   [8]  02 A2 01 00 00 00 00 00   '........'
  can0  RX - -  7AE   [8]  03 7F A2 11 00 00 00 00   '........'
 
  can0  TX - -  7A6   [8]  02 A2 01 00 00 00 00 00   '........'
  can0  RX - -  7AE   [8]  03 7F A2 11 00 00 00 00   '........'
 
  can0  TX - -  7A6   [8]  02 A0 01 00 00 00 00 00   '........'
  can0  RX - -  7AE   [8]  03 7F A0 11 00 00 00 00   '........'
 
  can0  TX - -  7A6   [8]  02 AA 01 00 00 00 00 00   '........'
  can0  RX - -  7AE   [8]  03 7F AA 11 00 00 00 00   '........'
 
  can0  RX - -  7A6   [8]  02 AE 01 00 00 00 00 00   '........'
  can0  RX - -  7AE   [8]  03 7F AE 11 00 00 00 00   '........'
 
  can0  RX - -  7A6   [8]  03 AE 01 00 00 00 00 00   '........'
  can0  RX - -  7AE   [8]  03 7F AE 11 00 00 00 00   '........'
 
  can0  TX - -  7A6   [8]  03 A2 01 00 00 00 00 00   '........'
  can0  RX - -  7AE   [8]  03 7F A2 11 00 00 00 00   '........'
  
 
  can0  RX - -  7A6   [8]  03 B1 00 01 00 00 00 00   '........'
  can0  RX - -  7AE   [8]  03 7F B1 11 00 00 00 00   '........'
 
  can0  TX - -  7A6   [8]  03 B1 00 01 00 00 00 00   '........'
  can0  RX - -  7AE   [8]  03 7F B1 11 00 00 00 00   '........'
  
  can0  TX - -  7A6   [8]  03 B1 00 0A 00 00 00 00   '........'
  can0  RX - -  7AE   [8]  03 7F B1 11 00 00 00 00   '........'
 
  can0  TX - -  7A6   [8]  03 B1 00 FF 00 00 00 00   '........'
  can0  RX - -  7AE   [8]  03 7F B1 11 00 00 00 00   '........'
 
  cva  TX - -  7A6   [8]  04 B1 00 FF 00 00 00 00   '........'
  can0  RX - -  7AE   [8]  03 7F B1 11 00 00 00 00   '........'
 
 
 
  can0  TX - -  7A6   [8]  04 B1 0A FF 00 00 00 00   '........'
  can0  RX - -  7AE   [8]  03 7F B1 11 00 00 00 00   '........'
 
 
  can0  TX - -  7A6   [8]  02 B1 0A 00 00 00 00 00   '........'
  can0  RX - -  7AE   [8]  03 7F B1 11 00 00 00 00   '........'
 
 
  can0  RX - -  7A6   [8]  03 B1 0A 00 00 00 00 00   '........'
  can0  RX - -  7AE   [8]  03 7F B1 11 00 00 00 00   '........'
 
 
 
 
  can0  TX - -  7A6   [8]  02 B1 00 01 00 00 00 00   '........'
  can0  RX - -  7AE   [8]  03 7F B1 11 00 00 00 00   '........'
 
 

  can0  TX - -  7A6   [8]  03 21 01 02 00 00 00 00   '.!......'
  can0  RX - -  7AE   [8]  03 7F 21 12 00 00 00 00   '..!.....'
 
 
 
  can0  TX - -  7A6   [8]  03 21 01 00 00 00 00 00   '.!......'
  can0  RX - -  7AE   [8]  03 7F 21 12 00 00 00 00   '..!.....'
 
  can0  TX - -  7A6   [8]  02 21 01 00 00 00 00 00   '.!......'
  can0  RX - -  7AE   [8]  03 61 01 16 00 00 00 00   '.a......'
 

 
  can0  TX - -  7A6   [8]  03 3B 01 17 00 00 00 00   '.;......'
  can0  RX - -  7AE   [8]  02 7B 01 00 00 00 00 00   '.{......' 
 
 
  can0  TX - -  7A6   [8]  03 3B 02 17 00 00 00 00   '.;......'
  can0  RX - -  7AE   [8]  03 7F 3B 31 00 00 00 00   '..;1....'
 
  can0  TX - -  7A6   [8]  02 21 01 00 00 00 00 00   '.!......'
  can0  RX - -  7AE   [8]  03 61 01 17 00 00 00 00   '.a......'
 
 
  can0  TX - -  7A6   [8]  03 3B 02 15 00 00 00 00   '.;......'
  can0  RX - -  7AE   [8]  03 7F 3B 31 00 00 00 00   '..;1....' 
 
  can0  RX - -  7A6   [8]  02 11 02 00 00 00 00 00   '........
  can0  RX - -  7AE   [8]  03 7F 11 12 00 00 00 00   '........'
 
  can0  TX - -  7A6   [8]  02 11 03 00 00 00 00 00   '........'
  can0  RX - -  7AE   [8]  03 7F 11 12 00 00 00 00   '........'
 
 ocan0  TX - -  7A6   [8]  02 11 04 00 00 00 00 00   '........'
  can0  RX - -  7AE   [8]  03 7F 11 12 00 00 00 00   '........
 
  can0  TX - -  7A6   [8]  02 11 05 00 00 00 00 00   '........'
  can0  RX - -  7AE   [8]  03 7F 11 12 00 00 00 00   '........'
 
  can0  TX - -  7A6   [8]  02 11 06 00 00 00 00 00   '........'
  can0  RX - -  7AE   [8]  03 7F 11 12 00 00 00 00   '........'
 
 
  can0  TX - -  7A6   [8]  02 11 11 00 00 00 00 00   '........'
  can0  RX - -  7AE   [8]  03 7F 11 12 00 00 00 00   '........'
 
  can0  RX - -  7A6   [8]  02 11 12 00 00 00 00 00   '........'
  can0  RX - -  7AE   [8]  03 7F 11 12 00 00 00 00   '........'
 
 
 
 
  can0  TX - -  7A6   [8]  02 11 0A 00 00 00 00 00   '........'
  can0  RX - -  7AE   [8]  03 7F 11 12 00 00 00 00   '........'
 
 
 
  can0  RX - -  7A6   [8]  02 11 0B 00 00 00 00 00   '........'
  can0  RX - -  7AE   [8]  03 7F 11 12 00 00 00 00   '........'
 
 
  can0  RX - -  7A6   [8]  02 11 01 00 00 00 00 00   '........'
  can0  RX - -  7AE   [8]  01 51 00 00 00 00 00 00   '.Q......'
 
 
  can0  TX - -  7A6   [8]  02 21 01 00 00 00 00 00   '.!......'
  can0  RX - -  7AE   [8]  03 61 01 17 00 00 00 00   '.a......'
 
 
 
  can0  TX - -  7A6   [8]  02 21 02 00 00 00 00 00   '.!......'
  can0  RX - -  7AE   [8]  03 7F 21 31 00 00 00 00   '..!1....'
 
  can0  TX - -  7A6   [8]  02 21 03 00 00 00 00 00   '.!......'
  can0  RX - -  7AE   [8]  03 7F 21 31 00 00 00 00   '..!1....'
                      gen can0 -I 7A6 -D 023e02 -L 8 -g 5000 
 
  can0  TX - -  7A6   [8]  02 21 0F 00 00 00 00 00   '.!......'
  can0  RX - -  7AE   [8]  03 7F 21 31 00 00 00 00   '..!1....'
 
  can0  TX - -  7A6   [8]  02 21 0F 00 00 00 00 00   '.!......'
  can0  RX - -  7AE   [8]  03 7F 21 31 00 00 00 00   '..!1....'
 
 
  can0  TX - -  7A6   [8]  02 21 0B 00 00 00 00 00   '.!......'
  can0  RX - -  7AE   [8]  03 7F 21 31 00 00 00 00   '..!1....'

 
  can0  TX - -  7A6   [8]  02 21 09 00 00 00 00 00   '.!......'
  can0  RX - -  7AE   [8]  03 7F 21 31 00 00 00 00   '..!1....'
 
 
  can0  TX - -  7A6   [8]  02 21 10 00 00 00 00 00   '.!......'
  can0  RX - -  7AE   [8]  03 7F 21 31 00 00 00 00   '..!1....'
 
 
  can0  TX - -  7A6   [8]  03 21 00 01 00 00 00 00   '.!......'
  can0  RX - -  7AE   [8]  03 7F 21 12 00 00 00 00   '..!.....'
 
  
  can0  TX - -  7A6   [8]  03 21 00 00 00 00 00 00   '.!......'
  can0  RX - -  7AE   [8]  03 7F 21 12 00 00 00 00   '..!.....'
 
  can0  TX - -  7A6   [8]  02 20 30 00 00 00 00 00   '. 0.....'
  can0  RX - -  7AE   [8]  03 7F 20 11 00 00 00 00   '.. .....'
 
  can0  TX - -  7A6   [8]  02 21 30 00 00 00 00 00   '.!0.....'
  can0  RX - -  7AE   [8]  03 7F 21 31 00 00 00 00   '..!1....'
 
  can0  TX - -  7A6   [8]  02 21 03 00 00 00 00 00   '.!......'
  can0  RX - -  7AE   [8]  03 7F 21 31 00 00 00 00   '..!1....'
 
  can0  TX - -  7A6   [8]  02 21 0A 00 00 00 00 00   '.!......'
  can0  RX - -  7AE   [8]  03 7F 21 31 00 00 00 00   '..!1....'
 
  can0  TX - -  7A6   [8]  02 21 AA 00 00 00 00 00   '.!......'
  can0  RX - -  7AE   [8]  03 7F 21 31 00 00 00 00   '..!1....'
 
  can0  TX - -  7A6   [8]  02 22 01 00 00 00 00 00   '."......'
  can0  RX - -  7AE   [8]  03 7F 22 12 00 00 00 00   '..".....'
 
  can0  TX - -  7A6   [8]  03 22 01 00 00 00 00 00   '."......'
  can0  RX - -  7AE   [8]  03 7F 22 31 00 00 00 00   '.."1....'
 
  can0  TX - -  7A6   [8]  03 22 00 00 10 00 00 00   '."......'
  can0  RX - -  7AE   [8]  03 7F 22 31 00 00 00 00   '.."1....'
 
  can0  TX - -  7A6   [8]  03 22 00 01 00 00 00 00   '."......'
  can0  RX - -  7AE   [8]  03 7F 22 31 00 00 00 00   '.."1....'
 
  can0  TX - -  7A6   [8]  04 22 00 01 00 00 00 00   '."......'
  can0  RX - -  7AE   [8]  03 7F 22 31 00 00 00 00   '.."1....'
 
  can0  TX - -  7A6   [8]  03 22 00 01 00 00 00 00   '."......'
  can0  RX - -  7AE   [8]  03 7F 22 31 00 00 00 00   '.."1....'
 
 
  can0  TX - -  7A6   [8]  03 22 E1 00 00 00 00 00   '."......'
  can0  RX - -  7AE   [8]  03 7F 22 31 00 00 00 00   '.."1....'
 
  can0  RX - -  7A6   [8]  02 22 E1 00 00 00 00 00   '."......'
  can0  RX - -  7AE   [8]  03 7F 22 12 00 00 00 00   '..".....'
 
  can0  RX - -  7A6   [8]  03 22 00 E1 00 00 00 00   '."......'
  can0  RX - -  7AE   [8]  03 7F 22 31 00 00 00 00   '.."1....'
 
  can0  TX - -  7A6   [8]  03 22 E1 00 00 00 00 00   '."......'
  can0  RX - -  7AE   [8]  03 7F 22 31 00 00 00 00   '.."1....'
 
  can0  TX - -  7A6   [8]  03 22 E1 00 00 00 00 00   '."......'
  can0  RX - -  7AE   [8]  03 7F 22 31 00 00 00 00   '.."1....'
 
  can0  TX - -  7A6   [8]  03 22 D1 00 00 00 00 00   '."......'
  can0  RX - -  7AE   [8]  04 62 D1 00 81 00 00 00   '.b......'
 
  can0  TX - -  7A6   [8]  02 01 08 70 00 00 00 00   '...p....'
  can0  RX - -  7AE   [8]  03 7F 01 11 00 00 00 00   '........'
 

  can0  TX - -  7A6   [8]  02 10 87 00 00 00 00 00   '........'
  can0  RX - -  7AE   [8]  02 50 87 00 00 00 00 00   '.P......'
 
  can0  TX - -  7A6   [8]  02 27 01 00 00 00 00 00   '.'......'
  can0  RX - -  7AE   [8]  05 67 01 B0 60 FC 00 00   '.g..`...'
  can0  TX - -  7A6   [8]  05 27 02 35 49 90 00 00   '.'.5I...'
  can0  RX - -  7AE   [8]  02 67 02 00 00 00 00 00   '.g......'
 
   can0  TX - -  7A6   [8]  02 01 0F 00 00 00 00 00   '........'
  can0  RX - -  7AE   [8]  03 7F 01 11 00 00 00 00   '........'
 
  can0  TX - -  7A6   [8]  02 10 F0 00 00 00 00 00   '........'
  can0  RX - -  7AE   [8]  03 7F 10 12 00 00 00 00   '........'

  can0  TX - -  7A6   [8]  02 10 FA 00 00 00 00 00   '........'
  can0  RX - -  7AE   [8]  03 7F 10 12 00 00 00 00   '........'
 
 
  can0  TX - -  7A6   [8]  02 10 FE 00 00 00 00 00   '........'
  can0  RX - -  7AE   [8]  03 7F 10 12 00 00 00 00   '........'
  
  can0  TX - -  7A6   [8]  02 10 89 00 00 00 00 00   '........'
  can0  RX - -  7AE   [8]  03 7F 10 12 00 00 00 00   '........'
 
  can0  TX - -  7A6   [8]  02 10 90 00 00 00 00 00   '........'
  can0  RX - -  7AE   [8]  03 7F 10 12 00 00 00 00   '........'
 
  can0  TX - -  7A6   [8]  02 10 97 00 00 00 00 00   '........'
  can0  RX - -  7AE   [8]  03 7F 10 12 00 00 00 00   '........'
 
  can0  TX - -  7A6   [8]  02 10 99 00 00 00 00 00   '........'
  can0  RX - -  7AE   [8]  03 7F 10 12 00 00 00 00   '........'
 
  can0  TX - -  7A6   [8]  02 10 88 00 00 00 00 00   '........'
  can0  RX - -  7AE   [8]  03 7F 10 12 00 00 00 00   '........'
 
  can0  TX - -  7A6   [8]  02 10 86 00 00 00 00 00   '........'
  can0  RX - -  7AE   [8]  03 7F 10 12 00 00 00 00   '........'
 
  can0  TX - -  7A6   [8]  02 10 84 00 00 00 00 00   '........'
  can0  RX - -  7AE   [8]  03 7F 10 12 00 00 00 00   '........'

  can0  TX - -  7A6   [8]  02 10 83 00 00 00 00 00   '........'
  can0  RX - -  7AE   [8]  03 7F 10 12 00 00 00 00   '........'
 
  can0  TX - -  7A6   [8]  02 10 82 00 00 00 00 00   '........'
  can0  RX - -  7AE   [8]  03 7F 10 12 00 00 00 00   '........'

  can0  TX - -  7A6   [8]  02 10 80 00 00 00 00 00   '........'
  can0  RX - -  7AE   [8]  03 7F 10 12 00 00 00 00   '........'
 
   can0  RX - -  7A6   [8]  02 10 01 00 00 00 00 00   '........'
  can0  RX - -  7AE   [8]  03 7F 10 12 00 00 00 00   '........'
 
  can0  TX - -  7A6   [8]  02 10 BA 00 00 00 00 00   '........'
  can0  RX - -  7AE   [8]  03 7F 10 12 00 00 00 00   '........'
 
  can0  TX - -  7A6   [8]  02 21 02 00 00 00 00 00   '.!......'
  can0  RX - -  7AE   [8]  03 7F 21 31 00 00 00 00   '..!1....'
 
  can0  TX - -  7A6   [8]  02 21 11 00 00 00 00 00   '.!......'
  can0  RX - -  7AE   [8]  03 7F 21 31 00 00 00 00   '..!1....'
 
  can0  TX - -  7A6   [8]  02 21 E1 00 00 00 00 00   '.!......'
  can0  RX - -  7AE   [8]  03 7F 21 31 00 00 00 00   '..!1....'
  
  can0  RX - -  7A6   [8]  03 22 02 00 00 00 00 00   '."......'
  can0  RX - -  7AE   [8]  04 62 02 00 00 00 00 00   '.b......'
 
  can0  RX - -  7A6   [8]  02 3E 00 00 00 00 00 00   '.>......'
  can0  RX - -  7AE   [8]  03 7F 3E 12 00 00 00 00   '..>.....'
 
  can0  RX - -  7A6   [8]  03 22 E2 1A 00 00 00 00   '."......'
  can0  RX - -  7AE   [8]  07 62 E2 1A 38 52 32 39   '.b..8R29'
 
  can0  RX - -  7A6   [8]  03 22 E2 17 00 00 00 00   '."......'
  can0  RX - -  7AE   [8]  07 62 E2 17 18 0A 08 02   '.b......'
 
  can0  RX - -  7A6   [8]  03 22 E2 19 00 00 00 00   '."......'
  can0  RX - -  7AE   [8]  05 62 E2 19 04 00 00 00   '.b......'
 
  can0  RX - -  7A6   [8]  03 22 E6 F3 00 00 00 00   '."......'
  can0  RX - -  7AE   [8]  04 62 E6 F3 0C 00 00 00   '.b......'
 
  can0  RX - -  7A6   [8]  03 22 E6 11 00 00 00 00   '."......'
  can0  RX - -  7AE   [8]  10 1B 62 E6 11 38 52 32   '..b..8R2'
 
  can0  RX - -  7A6   [8]  30 00 00 00 00 00 00 00   '0.......'
  can0  RX - -  7AE   [8]  21 39 2D 31 34 44 30 31   '!9-14D01'
 
  can0  RX - -  7AE   [8]  22 37 2D 43 41 00 00 00   '"7-CA...'
  can0  RX - -  7AE   [8]  23 00 00 00 00 00 00 00   '#.......'
 
  can0  RX - -  7A6   [8]  03 22 E6 12 00 00 00 00   '."......'
  can0  RX - -  7AE   [8]  03 7F 22 31 00 00 00 00   '.."1....'
 
  can0  RX - -  7A6   [8]  03 22 E2 00 00 00 00 00   '."......'
  can0  RX - -  7AE   [8]  06 62 E2 00 03 15 6C 00   '.b....l.'
 
  can0  RX - -  7A6   [8]  03 22 E2 21 00 00 00 00   '.".!....'
  can0  RX - -  7AE   [8]  03 7F 22 31 00 00 00 00   '.."1....'
 
  can0  RX - -  7A6   [8]  03 22 E6 10 00 00 00 00   '."......'
  can0  RX - -  7AE   [8]  10 1B 62 E6 10 38 52 32   '..b..8R2'
  can0  RX - -  7A6   [8]  30 00 00 00 00 00 00 00   '0.......'
  can0  RX - -  7AE   [8]  21 39 2D 31 34 44 30 31   '!9-14D01'
  can0  RX - -  7AE   [8]  22 35 2D 43 41 00 00 00   '"5-CA...'
  can0  RX - -  7AE   [8]  23 00 00 00 00 00 00 00   '#.......'
 
  can0  RX - -  7A6   [8]  03 22 E2 21 00 00 00 00   '.".!....'
  can0  RX - -  7AE   [8]  03 7F 22 31 00 00 00 00   '.."1....'
 
  can0  RX - -  7A6   [8]  03 22 02 00 00 00 00 00   '."......'
  can0  RX - -  7AE   [8]  04 62 02 00 00 00 00 00   '.b......'
 
  can0  RX - -  7A6   [8]  03 22 19 28 00 00 00 00   '.".(....'
  can0  RX - -  7AE   [8]  05 62 19 28 00 00 00 00   '.b.(....'
 
  can0  RX - -  7A6   [8]  03 22 31 52 00 00 00 00   '."1R....'
  can0  RX - -  7AE   [8]  03 7F 22 31 00 00 00 00   '.."1....'
 
 ,can0  RX - -  7A6   [8]  03 22 31 53 00 00 00 00   '."1S....'
  can0  RX - -  7AE   [8]  07 62 31 53 00 00 00 00   '.b1S....'
  
  can0  RX - -  7A6   [8]  03 22 63 18 00 00 00 00   '."c.....'
  can0  RX - -  7AE   [8]  04 62 63 18 01 00 00 00   '.bc.....'
  
  can0  RX - -  7A6   [8]  03 22 71 00 00 00 00 00   '."q.....'
  can0  RX - -  7AE   [8]  05 62 71 00 00 00 00 00   '.bq.....'
  
  can0  RX - -  7A6   [8]  03 22 71 24 00 00 00 00   '."q$....'
  can0  RX - -  7AE   [8]  05 62 71 24 00 00 00 00   '.bq$....'
  
  can0  RX - -  7A6   [8]  03 22 71 40 00 00 00 00   '."q@....'
  can0  RX - -  7AE   [8]  04 62 71 40 15 00 00 00   '.bq@....'
  
  can0  RX - -  7A6   [8]  03 22 80 00 00 00 00 00   '."......'
  can0  RX - -  7AE   [8]  04 62 80 00 00 00 00 00   '.b......'
  
  can0  RX - -  7A6   [8]  03 22 80 01 00 00 00 00   '."......'
  can0  RX - -  7AE   [8]  07 62 80 01 00 00 00 00   '.b......'
  
  can0  RX - -  7A6   [8]  03 22 80 04 00 00 00 00   '."......'
  can0  RX - -  7AE   [8]  07 62 80 04 00 00 00 00   '.b......'
  
  can0  RX - -  7A6   [8]  03 22 81 34 00 00 00 00   '.".4....'
  can0  RX - -  7AE   [8]  04 62 81 34 00 00 00 00   '.b.4....'
  
  can0  RX - -  7A6   [8]  03 22 81 35 00 00 00 00   '.".5....'
  can0  RX - -  7AE   [8]  04 62 81 35 00 00 00 00   '.b.5....'
  
  can0  RX - -  7A6   [8]  03 22 99 0B 00 00 00 00   '."......'
  can0  RX - -  7AE   [8]  03 7F 22 31 00 00 00 00   '.."1....'
  
  can0  RX - -  7A6   [8]  03 22 99 22 00 00 00 00   '."."....'
  can0  RX - -  7AE   [8]  03 7F 22 31 00 00 00 00   '.."1....'
  
  can0  RX - -  7A6   [8]  03 22 99 2D 00 00 00 00   '.".-....'
  can0  RX - -  7AE   [8]  07 62 99 2D 00 00 00 00   '.b.-....'
  
  can0  RX - -  7A6   [8]  03 22 A1 0A 00 00 00 00   '."......'
  can0  RX - -  7AE   [8]  03 7F 22 31 00 00 00 00   '.."1....'
  
  can0  RX - -  7A6   [8]  03 22 A1 45 00 00 00 00   '.".E....'
  can0  RX - -  7AE   [8]  03 7F 22 31 00 00 00 00   '.."1....'
  
  can0  RX - -  7A6   [8]  03 22 A2 A2 00 00 00 00   '."......'
  can0  RX - -  7AE   [8]  03 7F 22 31 00 00 00 00   '.."1....'
  
  can0  RX - -  7A6   [8]  03 22 C1 1C 00 00 00 00   '."......'
  can0  RX - -  7AE   [8]  07 62 C1 1C 00 00 00 00   '.b......'
  
  can0  RX - -  7A6   [8]  03 22 C9 03 00 00 00 00   '."......'
  can0  RX - -  7AE   [8]  03 7F 22 31 00 00 00 00   '.."1....'
  
  can0  RX - -  7A6   [8]  03 22 C9 04 00 00 00 00   '."......'
  can0  RX - -  7AE   [8]  03 7F 22 31 00 00 00 00   '.."1....'
  
  can0  RX - -  7A6   [8]  03 22 D1 00 00 00 00 00   '."......'
  can0  RX - -  7AE   [8]  04 62 D1 00 87 00 00 00   '.b......'
  
  can0  RX - -  7A6   [8]  04 18 00 FF 00 00 00 00   '........'
  can0  RX - -  7AE   [8]  02 58 00 00 00 00 00 00   '.X......'
 
 
  can0  RX - -  720   [8]  03 22 02 00 00 00 00 00   '."......'
  can0  RX - -  728   [8]  04 62 02 00 08 00 00 00   '.b......'
  
  can0  RX - -  720   [8]  02 3E 00 00 00 00 00 00   '.>......'
  can0  RX - -  728   [8]  03 7F 3E 12 00 00 00 00   '..>.....'
  
  can0  RX - -  720   [8]  03 22 E2 1A 00 00 00 00   '."......'
  can0  RX - -  728   [8]  07 62 E2 1A 38 52 32 39   '.b..8R29'
  
  can0  RX - -  720   [8]  03 22 E2 17 00 00 00 00   '."......'
  can0  RX - -  728   [8]  07 62 E2 17 01 00 08 49   '.b.....I'
  
  can0  RX - -  720   [8]  03 22 E2 19 00 00 00 00   '."......'
  can0  RX - -  728   [8]  05 62 E2 19 0C 01 00 00   '.b......'
  
  can0  RX - -  720   [8]  03 22 E6 F3 00 00 00 00   '."......'
  can0  RX - -  728   [8]  04 62 E6 F3 0A 00 00 00   '.b......'
  
  can0  RX - -  720   [8]  03 22 E6 11 00 00 00 00   '."......'
  can0  RX - -  728   [8]  03 7F 22 31 00 00 00 00   '.."1....'
  
  can0  RX - -  720   [8]  03 22 E6 12 00 00 00 00   '."......'
  can0  RX - -  728   [8]  03 7F 22 31 00 00 00 00   '.."1....'
  
  can0  RX - -  720   [8]  03 22 E2 00 00 00 00 00   '."......'
  can0  RX - -  728   [8]  06 62 E2 00 17 0B 6C 00   '.b....l.'
  
  can0  RX - -  720   [8]  03 22 E2 21 00 00 00 00   '.".!....'
  can0  RX - -  728   [8]  03 7F 22 31 00 00 00 00   '.."1....'
  
  can0  RX - -  720   [8]  03 22 E6 10 00 00 00 00   '."......'
  can0  RX - -  728   [8]  03 7F 22 31 00 00 00 00   '.."1....'
  
  can0  RX - -  720   [8]  03 22 E2 21 00 00 00 00   '.".!....'
  can0  RX - -  728   [8]  03 7F 22 31 00 00 00 00   '.."1....'
  
  can0  RX - -  720   [8]  03 22 00 51 00 00 00 00   '.".Q....'
  can0  RX - -  728   [8]  04 62 00 51 01 00 00 00   '.b.Q....'
  
  can0  RX - -  720   [8]  03 22 02 00 00 00 00 00   '."......'
  can0  RX - -  728   [8]  04 62 02 00 08 00 00 00   '.b......'
  
  can0  RX - -  720   [8]  03 22 02 02 00 00 00 00   '."......'
  can0  RX - -  728   [8]  04 62 02 02 00 00 00 00   '.b......'
  
  can0  RX - -  720   [8]  03 22 11 C1 00 00 00 00   '."......'
  can0  RX - -  728   [8]  05 62 11 C1 00 00 00 00   '.b......'
  
  can0  RX - -  720   [8]  03 22 13 10 00 00 00 00   '."......'
  can0  RX - -  728   [8]  05 62 13 10 00 37 00 00   '.b...7..'
  
  can0  RX - -  720   [8]  03 22 19 11 00 00 00 00   '."......'
  can0  RX - -  728   [8]  04 62 19 11 00 00 00 00   '.b......'
  
  can0  RX - -  720   [8]  03 22 19 12 00 00 00 00   '."......'
  can0  RX - -  728   [8]  04 62 19 12 00 00 00 00   '.b......'
  
  can0  RX - -  720   [8]  03 22 29 08 00 00 00 00   '.").....'
  can0  RX - -  728   [8]  05 62 29 08 00 00 00 00   '.b).....'
  
  can0  RX - -  720   [8]  03 22 29 60 00 00 00 00   '.")`....'
  can0  RX - -  728   [8]  04 62 29 60 01 00 00 00   '.b)`....'
  
  can0  RX - -  720   [8]  03 22 49 32 00 00 00 00   '."I2....'
  can0  RX - -  728   [8]  03 7F 22 31 00 00 00 00   '.."1....'
  
  can0  RX - -  720   [8]  03 22 49 40 00 00 00 00   '."I@....'
  can0  RX - -  728   [8]  05 62 49 40 00 00 00 00   '.bI@....'
  
  can0  RX - -  720   [8]  03 22 59 04 00 00 00 00   '."Y.....'
  can0  RX - -  728   [8]  03 7F 22 31 00 00 00 00   '.."1....'
  
  can0  RX - -  720   [8]  03 22 59 40 00 00 00 00   '."Y@....'
  can0  RX - -  728   [8]  05 62 59 40 34 00 00 00   '.bY@4...'
  
  can0  RX - -  720   [8]  03 22 61 01 00 00 00 00   '."a.....'
  can0  RX - -  728   [8]  03 7F 22 31 00 00 00 00   '.."1....'
  
  can0  RX - -  720   [8]  03 22 61 04 00 00 00 00   '."a.....'
  can0  RX - -  728   [8]  04 62 61 04 00 00 00 00   '.ba.....'
  
  can0  RX - -  720   [8]  03 22 61 0C 00 00 00 00   '."a.....'
  can0  RX - -  728   [8]  03 7F 22 31 00 00 00 00   '.."1....'
  
  can0  RX - -  720   [8]  03 22 61 13 00 00 00 00   '."a.....'
  can0  RX - -  728   [8]  05 62 61 13 00 00 00 00   '.ba.....'
  
  can0  RX - -  720   [8]  03 22 61 80 00 00 00 00   '."a.....'
  can0  RX - -  728   [8]  06 62 61 80 00 00 00 00   '.ba.....'
  
  can0  RX - -  720   [8]  03 22 61 85 00 00 00 00   '."a.....'
  can0  RX - -  728   [8]  04 62 61 85 6E 00 00 00   '.ba.n...'
  
  can0  RX - -  720   [8]  03 22 61 96 00 00 00 00   '."a.....'
  can0  RX - -  728   [8]  05 62 61 96 00 00 00 00   '.ba.....'
  
  can0  RX - -  720   [8]  03 22 61 98 00 00 00 00   '."a.....'
  can0  RX - -  728   [8]  05 62 61 98 02 8A 00 00   '.ba.....'
  
  can0  RX - -  720   [8]  03 22 61 9D 00 00 00 00   '."a.....'
  can0  RX - -  728   [8]  06 62 61 9D 00 D3 C2 00   '.ba.....'
  
  can0  RX - -  720   [8]  03 22 61 9E 00 00 00 00   '."a.....'
  can0  RX - -  728   [8]  06 62 61 9E 00 D3 C2 00   '.ba.....'
  
  can0  RX - -  720   [8]  03 22 62 00 00 00 00 00   '."b.....'
  can0  RX - -  728   [8]  03 7F 22 31 00 00 00 00   '.."1....'
  
  can0  RX - -  720   [8]  03 22 62 01 00 00 00 00   '."b.....'
  can0  RX - -  728   [8]  05 62 62 01 00 00 00 00   '.bb.....'
  
  can0  RX - -  720   [8]  03 22 62 02 00 00 00 00   '."b.....'
  can0  RX - -  728   [8]  05 62 62 02 00 00 00 00   '.bb.....'
  
  can0  RX - -  720   [8]  03 22 62 03 00 00 00 00   '."b.....'
  can0  RX - -  728   [8]  05 62 62 03 00 00 00 00   '.bb.....'
  
  can0  RX - -  720   [8]  03 22 62 05 00 00 00 00   '."b.....'
  can0  RX - -  728   [8]  04 62 62 05 02 00 00 00   '.bb.....'
  
  can0  RX - -  720   [8]  03 22 62 06 00 00 00 00   '."b.....'
  can0  RX - -  728   [8]  05 62 62 06 08 C3 00 00   '.bb.....'
  
  can0  RX - -  720   [8]  03 22 62 07 00 00 00 00   '."b.....'
  can0  RX - -  728   [8]  04 62 62 07 00 00 00 00   '.bb.....'
  
  can0  RX - -  720   [8]  03 22 62 0D 00 00 00 00   '."b.....'
  can0  RX - -  728   [8]  04 62 62 0D 06 00 00 00   '.bb.....'
  
  can0  RX - -  720   [8]  03 22 62 0F 00 00 00 00   '."b.....'
  can0  RX - -  728   [8]  05 62 62 0F 0F 80 00 00   '.bb.....'
  
  can0  RX - -  720   [8]  03 22 63 09 00 00 00 00   '."c.....'
 
  can0  RX - -  728   [8]  03 7F 22 31 00 00 00 00   '.."1....'

  can0  RX - -  720   [8]  03 22 63 16 00 00 00 00   '."c.....'
  can0  RX - -  728   [8]  05 62 63 16 00 00 00 00   '.bc.....'

  can0  RX - -  720   [8]  03 22 71 00 00 00 00 00   '."q.....'
  can0  RX - -  728   [8]  05 62 71 00 C0 00 00 00   '.bq.....'

  can0  RX - -  720   [8]  03 22 71 1B 00 00 00 00   '."q.....'
  can0  RX - -  728   [8]  03 7F 22 31 00 00 00 00   '.."1....'

  can0  RX - -  720   [8]  03 22 71 20 00 00 00 00   '."q ....'
  can0  RX - -  728   [8]  05 62 71 20 00 00 00 00   '.bq ....'

  can0  RX - -  720   [8]  03 22 71 39 00 00 00 00   '."q9....'
  can0  RX - -  728   [8]  04 62 71 39 08 00 00 00   '.bq9....'

  can0  RX - -  720   [8]  03 22 71 40 00 00 00 00   '."q@....'
  can0  RX - -  728   [8]  04 62 71 40 03 00 00 00   '.bq@....'

  can0  RX - -  720   [8]  03 22 99 59 00 00 00 00   '.".Y....'
  can0  RX - -  728   [8]  04 62 99 59 36 00 00 00   '.b.Y6...'

  can0  RX - -  720   [8]  03 22 A4 50 00 00 00 00   '.".P....'
  can0  RX - -  728   [8]  05 62 A4 50 08 00 00 00   '.b.P....'

  can0  RX - -  720   [8]  03 22 B9 02 00 00 00 00   '."......'
  can0  RX - -  728   [8]  03 7F 22 31 00 00 00 00   '.."1....'

  can0  RX - -  720   [8]  03 22 D1 00 00 00 00 00   '."......'
  can0  RX - -  728   [8]  04 62 D1 00 81 00 00 00   '.b......'

  can0  RX - -  720   [8]  03 22 D1 02 00 00 00 00   '."......'
  can0  RX - -  728   [8]  04 62 D1 02 76 00 00 00   '.b..v...'

  can0  RX - -  720   [8]  03 22 D1 28 00 00 00 00   '.".(....'
  can0  RX - -  728   [8]  04 62 D1 28 96 00 00 00   '.b.(....'

  can0  RX - -  720   [8]  03 22 D1 29 00 00 00 00   '.".)....'
  can0  RX - -  728   [8]  04 62 D1 29 08 00 00 00   '.b.)....'

  can0  RX - -  720   [8]  04 18 00 FF 00 00 00 00   '........'
  can0  RX - -  728   [8]  10 1A 58 08 53 27 20 C0   '..X.S' .'
  can0  RX - -  720   [8]  30 00 00 00 00 00 00 00   '0.......'
  can0  RX - -  728   [8]  21 74 20 C0 11 20 C1 40   '!t .. .@'
  can0  RX - -  728   [8]  22 20 C2 56 20 C0 73 20   '" .V .s '
  can0  RX - -  728   [8]  23 C0 02 20 C1 00 20 00   '#.. .. .'

 
 
 
 
  can0  RX - -  7A6   [8]  03 14 FF 00 00 00 00 00   '........'
  can0  RX - -  7AE   [8]  03 54 FF 00 00 00 00 00   '.T......'
 
  can0  RX - -  720   [8]  03 14 FF 00 00 00 00 00   '........'
  can0  RX - -  728   [8]  03 54 FF 00 00 00 00 00   '.T......'
 
  can0  RX - -  7A6   [8]  04 18 00 FF 00 00 00 00   '........'
  can0  RX - -  7AE   [8]  02 58 00 00 00 00 00 00   '.X......'
  can0  RX - -  720   [8]  04 18 00 FF 00 00 00 00   '........'
  can0  RX - -  728   [8]  02 58 00 00 00 00 00 00   '.X......'


  can0  RX - -  7A6   [8]  02 11 01 00 00 00 00 00   '........'
  can0  RX - -  7AE   [8]  01 51 00 00 00 00 00 00   '.Q...... 
  
  can0  RX - -  7A6   [8]  02 21 02 00 00 00 00 00   '.!......'
  can0  RX - -  7AE   [8]  03 7F 21 31 00 00 00 00   '..!1....'
  can0  RX - -  7A6   [8]  02 21 03 00 00 00 00 00   '.!......'
 
  can0  RX - -  7AE   [8]  03 7F 21 31 00 00 00 00   '..!1....'
  can0  RX - -  7A6   [8]  02 21 04 00 00 00 00 00   '.!......'
  can0  RX - -  7AE   [8]  03 7F 21 31 00 00 00 00   '..!1....'
  can0  RX - -  7A6   [8]  02 21 05 00 00 00 00 00   '.!......'
  can0  RX - -  7AE   [8]  03 7F 21 31 00 00 00 00   '..!1....'
  can0  RX - -  7A6   [8]  02 21 06 00 00 00 00 00   '.!......'
  can0  RX - -  7AE   [8]  03 7F 21 31 00 00 00 00   '..!1....'
 
  can0  RX - -  7A6   [8]  10 0F 22 00 01 00 02 00   '..".....'
  can0  RX - -  7AE   [8]  30 0A 00 00 00 00 00 00   '0.......'
  can0  RX - -  7A6   [8]  21 03 00 04 00 05 00 06   '!.......'
  can0  RX - -  7A6   [8]  22 00 07 00 00 00 00 00   '".......'
  can0  RX - -  7AE   [8]  03 7F 22 31 00 00 00 00   '.."1....'
 
  can0  RX - -  7A6   [8]  02 21 00 00 00 00 00 00   '.!......'
  can0  RX - -  7AE   [8]  10 13 61 00 36 46 50 41   '..a.6FPA'
  can0  RX - -  7A6   [8]  30 00 00 00 00 00 00 00   '0.......'
  can0  RX - -  7AE   [8]  21 41 41 4A 47 53 57 38   '!AAJGSW8'
  can0  RX - -  7AE   [8]  22 45 39 31 36 31 33 00   '"E91613.'
 
  can0  RX - -  7A6   [8]  02 21 01 00 00 00 00 00   '.!......'
  can0  RX - -  7AE   [8]  03 61 01 17 00 00 00 00   '.a......'

 
  can0  RX - -  7A6   [8]  02 21 00 00 00 00 00 00   '.!......'
  can0  RX - -  7AE   [8]  10 13 61 00 36 46 50 41   '..a.6FPA'
  can0  RX - -  7A6   [8]  30 00 00 00 00 00 00 00   '0.......'
  can0  RX - -  7AE   [8]  21 41 41 4A 47 53 57 38   '!AAJGSW8'
  can0  RX - -  7AE   [8]  22 45 39 31 36 31 33 00   '"E91613.'

  can0  RX - -  7A6   [8]  02 21 01 00 00 00 00 00   '.!......'
  can0  RX - -  7AE   [8]  03 61 01 17 00 00 00 00   '.a......'
 
 
 
 
 
  can0  RX - -  7A6   [8]  02 21 00 00 00 00 00 00   '.!......'
  can0  RX - -  7AE   [8]  10 13 61 00 36 46 50 41   '..a.6FPA'
  can0  RX - -  7A6   [8]  30 00 00 00 00 00 00 00   '0.......'
  can0  RX - -  7AE   [8]  21 41 41 4A 47 53 57 38   '!AAJGSW8'
  can0  RX - -  7AE   [8]  22 45 39 31 36 31 33 00   '"E91613.'

  can0  RX - -  7A6   [8]  02 21 01 00 00 00 00 00   '.!......'
  can0  RX - -  7AE   [8]  03 61 01 17 00 00 00 00   '.a......'
 
 
  can0  RX - -  7A6   [8]  03 3B 01 16 00 00 00 00   '.;......'
  can0  RX - -  7AE   [8]  03 7F 3B 22 00 00 00 00   '..;"....'

  can0  RX - -  7A6   [8]  02 10 87 00 00 00 00 00   '........'
  can0  RX - -  7AE   [8]  02 50 87 00 00 00 00 00   '.P......'

  can0  RX - -  7A6   [8]  03 3B 01 16 00 00 00 00   '.;......'
  can0  RX - -  7AE   [8]  02 7B 01 00 00 00 00 00   '.{......'

  can0  RX - -  7A6   [8]  03 22 D1 00 00 00 00 00   '."......'
  can0  RX - -  7AE   [8]  04 62 D1 00 87 00 00 00   '.b......'

  can0  RX - -  7A6   [8]  02 10 81 00 00 00 00 00   '........'
  can0  RX - -  7AE   [8]  02 50 81 00 00 00 00 00   '.P......'
 
  can0  RX - -  7A6   [8]  02 11 01 00 00 00 00 00   '........'
  can0  RX - -  7AE   [8]  01 51 00 00 00 00 00 00   '.Q......'
 
  
  can0  RX - -  7A6   [8]  02 21 00 00 00 00 00 00   '.!......'
  can0  RX - -  7AE   [8]  10 13 61 00 36 46 50 41   '..a.6FPA'
  can0  RX - -  7A6   [8]  30 00 00 00 00 00 00 00   '0.......'
  can0  RX - -  7AE   [8]  21 41 41 4A 47 53 57 38   '!AAJGSW8'
  can0  RX - -  7AE   [8]  22 45 39 31 36 31 33 00   '"E91613.'
 
  can0  RX - -  7A6   [8]  02 21 01 00 00 00 00 00   '.!......'
  can0  RX - -  7AE   [8]  03 61 01 16 00 00 00 00   '.a......'
 
  
 
  can0  RX - -  7A6   [8]  02 10 87 00 00 00 00 00   '........'
  can0  RX - -  7AE   [8]  02 50 87 00 00 00 00 00   '.P......'
 
  can0  RX - -  7A6   [8]  03 3B 01 F6 00 00 00 00   '.;......'
  can0  RX - -  7AE   [8]  02 7B 01 00 00 00 00 00   '.{......'
 
  can0  RX - -  7A6   [8]  03 22 D1 00 00 00 00 00   '."......'
  can0  RX - -  7AE   [8]  04 62 D1 00 87 00 00 00   '.b......'
 
  can0  RX - -  7A6   [8]  02 10 81 00 00 00 00 00   '........'
  can0  RX - -  7AE   [8]  02 50 81 00 00 00 00 00   '.P......'
 
  can0  RX - -  7A6   [8]  02 11 01 00 00 00 00 00   '........'
  can0  RX - -  7AE   [8]  01 51 00 00 00 00 00 00   '.Q......'
 

  can0  RX - -  7A6   [8]  02 10 87 00 00 00 00 00   '........'
  can0  RX - -  7AE   [8]  02 50 87 00 00 00 00 00   '.P......'

  can0  RX - -  7A6   [8]  03 3B 01 F7 00 00 00 00   '.;......'
  can0  RX - -  7AE   [8]  02 7B 01 00 00 00 00 00   '.{......'
 
  can0  RX - -  7A6   [8]  03 22 D1 00 00 00 00 00   '."......'
  can0  RX - -  7AE   [8]  04 62 D1 00 87 00 00 00   '.b......'

 can0  RX - -  7A6   [8]  02 10 81 00 00 00 00 00   '........'
  can0  RX - -  7AE   [8]  02 50 81 00 00 00 00 00   '.P......'

  can0  RX - -  7A6   [8]  02 11 01 00 00 00 00 00   '........'
  can0  RX - -  7AE   [8]  01 51 00 00 00 00 00 00   '.Q......'
 
 
  can0  RX - -  7A6   [8]  02 10 87 00 00 00 00 00   '........'
  can0  RX - -  7AE   [8]  02 50 87 00 00 00 00 00   '.P......'

 can0  RX - -  7A6   [8]  03 3B 01 17 00 00 00 00   '.;......'
  can0  RX - -  7AE   [8]  02 7B 01 00 00 00 00 00   '.{......'
 
  can0  RX - -  7A6   [8]  03 22 D1 00 00 00 00 00   '."......'
  can0  RX - -  7AE   [8]  04 62 D1 00 87 00 00 00   '.b......'

  can0  RX - -  7A6   [8]  02 10 81 00 00 00 00 00   '........'
  can0  RX - -  7AE   [8]  02 50 81 00 00 00 00 00   '.P......'

  can0  RX - -  7A6   [8]  02 11 01 00 00 00 00 00   '........'
  can0  RX - -  7AE   [8]  01 51 00 00 00 00 00 00   '.Q......' 
 
 
 
  can0  RX - -  7A6   [8]  02 21 00 00 00 00 00 00   '.!......'
  can0  RX - -  7AE   [8]  10 13 61 00 36 46 50 41   '..a.6FPA'
  can0  RX - -  7A6   [8]  30 00 00 00 00 00 00 00   '0.......'
  can0  RX - -  7AE   [8]  21 41 41 4A 47 53 57 38   '!AAJGSW8'
  can0  RX - -  7AE   [8]  22 45 39 31 36 31 33 00   '"E91613.'

  can0  RX - -  7A6   [8]  02 21 01 00 00 00 00 00   '.!......'
  can0  RX - -  7AE   [8]  03 61 01 17 00 00 00 00   '.a......'
 
 
  can0  RX - -  7A6   [8]  02 10 87 00 00 00 00 00   '........'
  can0  RX - -  7AE   [8]  02 50 87 00 00 00 00 00   '.P......'

  can0  RX - -  7A6   [8]  03 3B 01 F7 00 00 00 00   '.;......'
  can0  RX - -  7AE   [8]  02 7B 01 00 00 00 00 00   '.{......'

  can0  RX - -  7A6   [8]  03 22 D1 00 00 00 00 00   '."......'
  can0  RX - -  7AE   [8]  04 62 D1 00 87 00 00 00   '.b......'

  can0  RX - -  7A6   [8]  02 10 81 00 00 00 00 00   '........'
  can0  RX - -  7AE   [8]  02 50 81 00 00 00 00 00   '.P......'
 
  can0  RX - -  7A6   [8]  02 11 01 00 00 00 00 00   '........'
  can0  RX - -  7AE   [8]  01 51 00 00 00 00 00 00   '.Q......'
 
  can0  RX - -  7A6   [8]  02 10 87 00 00 00 00 00   '........'
  can0  RX - -  7AE   [8]  02 50 87 00 00 00 00 00   '.P......'

  can0  RX - -  7A6   [8]  03 3B 01 17 00 00 00 00   '.;......'
  can0  RX - -  7AE   [8]  02 7B 01 00 00 00 00 00   '.{......'
 
  can0  RX - -  7A6   [8]  03 22 D1 00 00 00 00 00   '."......'
  can0  RX - -  7AE   [8]  04 62 D1 00 87 00 00 00   '.b......'

  can0  RX - -  7A6   [8]  02 10 81 00 00 00 00 00   '........'
  can0  RX - -  7AE   [8]  02 50 81 00 00 00 00 00   '.P......'

  can0  RX - -  7A6   [8]  02 11 01 00 00 00 00 00   '........'
  can0  RX - -  7AE   [8]  01 51 00 00 00 00 00 00   '.Q......'
 
 
 
 
 
  can0  RX - -  7A6   [8]  02 11 01 00 00 00 00 00   '........'
  can0  RX - -  7AE   [8]  01 51 00 00 00 00 00 00   '.Q......'
 

  can0  RX - -  7A6   [8]  02 21 00 00 00 00 00 00   '.!......'
  can0  RX - -  7AE   [8]  10 13 61 00 36 46 50 41   '..a.6FPA'
  can0  RX - -  7A6   [8]  30 00 00 00 00 00 00 00   '0.......'
  can0  RX - -  7AE   [8]  21 41 41 4A 47 53 57 38   '!AAJGSW8'
  can0  RX - -  7AE   [8]  22 45 39 31 36 31 33 00   '"E91613.'
 
  can0  RX - -  7A6   [8]  02 21 01 00 00 00 00 00   '.!......'
  can0  RX - -  7AE   [8]  03 61 01 17 00 00 00 00   '.a......'
 
  
  can0  RX - -  7A6   [8]  02 10 87 00 00 00 00 00   '........'
  can0  RX - -  7AE   [8]  02 50 87 00 00 00 00 00   '.P......'
 
  can0  RX - -  7A6   [8]  03 3B 01 F6 00 00 00 00   '.;......'
  can0  RX - -  7AE   [8]  02 7B 01 00 00 00 00 00   '.{......'
 
  can0  RX - -  7A6   [8]  03 22 D1 00 00 00 00 00   '."......'
  can0  RX - -  7AE   [8]  04 62 D1 00 87 00 00 00   '.b......'
 
  can0  RX - -  7A6   [8]  02 10 81 00 00 00 00 00   '........'
  can0  RX - -  7AE   [8]  02 50 81 00 00 00 00 00   '.P......'
 
  can0  RX - -  7A6   [8]  02 11 01 00 00 00 00 00   '........'
  can0  RX - -  7AE   [8]  01 51 00 00 00 00 00 00   '.Q......' 
 
 
  can0  RX - -  7A6   [8]  02 21 00 00 00 00 00 00   '.!......'
  can0  RX - -  7AE   [8]  10 13 61 00 36 46 50 41   '..a.6FPA'
  can0  RX - -  7A6   [8]  30 00 00 00 00 00 00 00   '0.......'
  can0  RX - -  7AE   [8]  21 41 41 4A 47 53 57 38   '!AAJGSW8'
  can0  RX - -  7AE   [8]  22 45 39 31 36 31 33 00   '"E91613.'

  can0  RX - -  7A6   [8]  02 21 01 00 00 00 00 00   '.!......'
  can0  RX - -  7AE   [8]  03 61 01 16 00 00 00 00   '.a......'
  
  can0  RX - -  7A6   [8]  02 10 87 00 00 00 00 00   '........'
  can0  RX - -  7AE   [8]  02 50 87 00 00 00 00 00   '.P......'
 
