(2012.575458) 0 7A6#023E020000000000
(2013.272851) 0 7A6#0210850000000000
(2014.151533) 0 7AE#0250850000000000
<!-- request security access-->
(2014.171105) 0 7A6#0227010000000000
(2014.173416) 0 7AE#056701DF97190000
<!--seed key + access granted
(2014.204298) 0 7A6#052702325D670000
(2014.205857) 0 7AE#0267020000000000
<!-- testerPresent suppressResponse
(2014.220695) 0 7A6#023E020000000000
<!-- First frame, 9 byte msg, service 34
(2016.040262) 0 7A6#100934FFFFE30000
<!-- Ack of nulti frame message 
(2016.041286) 0 7AE#3000010000000000
<!-- 2nd frame of msg
(2016.042844) 0 7A6#21000C3C00000000
<!-- positive response to service 34 request download/upload?
(2016.045380) 0 7AE#037400E100000000
<!-- first frame, e1 bytes, service 36 data transfer

<!-- begin secondary bootloader download -->
(2016.083903) 0 7A6#10 E1 36 01 00058518
<!-- multiframe msg acknowledged --->
(2016.084926) 0 7AE#3000010000000000
(2016.089986) 0 7A6#21E3FFFF46E5FFFF
(2016.092818) 0 7A6#221EE4FFFFFAE4FF
(2016.095834) 0 7A6#23FF5EE5FFFF031E
(2016.099720) 0 7A6#24E4FF1E5003F00D
(2016.102629) 0 7A6#25FD0BD509DD07E5
(2016.104820) 0 7A6#2605ED06D87B0704
(2016.107851) 0 7A6#2700400E000061DF
(2016.110811) 0 7A6#2881E90AF03B5F31
(2016.113842) 0 7A6#2900400E0000EB5F
(2016.116810) 0 7A6#2A0100615FCCE940
(2016.119840) 0 7A6#2BE6000080FF080B
(2016.122823) 0 7A6#2C40460000284781
(2016.125815) 0 7A6#2DE93B3F21002847
(2016.128822) 0 7A6#2E2D00014AC846FF
(2016.131814) 0 7A6#2F0F0846F0FE8142
(2016.135028) 0 7A6#20C4420836800001
(2016.137828) 0 7A6#214280FF5A060132
(2016.142638) 0 7A6#2263370100630705
(2016.144814) 0 7A6#23000932023A0042
(2016.147845) 0 7A6#24004A80FFD407CA
(2016.150836) 0 7A6#254E1F005C4F84E9
(2016.153827) 0 7A6#26CA36FF003CE684
(2016.156803) 0 7A6#27E9E931BA05644A
(2016.159818) 0 7A6#28D90501327B3704
(2016.162826) 0 7A6#2900B52D00EAC515
(2016.165793) 0 7A6#2A1DD0C2D2DCD11D
(2016.171825) 0 7A6#2B3E050000420132
(2016.174832) 0 7A6#2C63370100630705
(2016.177840) 0 7A6#2D000932004A80FF
(2016.180831) 0 7A6#2E92077A57050041
(2016.183830) 0 7A6#2FEA9D009C4F0100
(2016.186870) 0 7A6#20E9E90000000000
<!--positive response 0x76-->
(2016.190117) 0 7AE#0176000000000000
<!-- next section -->
(2016.225252) 0 7A6#10E136A1ED3B4729
(2016.226276) 0 7AE#3000010000000000
(2016.227868) 0 7A6#21003C3E01005F42
(2016.230836) 0 7A6#22083080FF3C027B
(2016.233851) 0 7A6#23570400BC5F0100
(2016.236834) 0 7A6#24E059CA0501325C
(2016.239849) 0 7A6#253701007C074400
(2016.242833) 0 7A6#261E3003F00AD508
(2016.245840) 0 7A6#27DD06E504ED0CFD
(2016.248856) 0 7A6#28031E1C0006F07F
(2016.251863) 0 7A6#2900541A63FF0900
(2016.254846) 0 7A6#2A63EF0500405600
(2016.257854) 0 7A6#2B002A5781E9400E
(2016.260852) 0 7A6#2C00002A57310006
(2016.263820) 0 7A6#2DE8EA5701006157
(2016.267075) 0 7A6#2ECCE91E301DF004
(2016.270936) 0 7A6#2F4D06450F4D8204
(2016.273830) 0 7A6#20E04106F0E24D3D
(2016.276854) 0 7A6#213729003D3F0900
(2016.279830) 0 7A6#225F32E731D10501
(2016.282845) 0 7A6#23327D370400B545
(2016.285860) 0 7A6#240730233E020080
(2016.288868) 0 7A6#25FFBA017D570400
(2016.291819) 0 7A6#26CA00E0519A3D3D
(2016.294875) 0 7A6#275F09003D670D00
(2016.297954) 0 7A6#28233E0300CB610C
(2016.300856) 0 7A6#2936FFFF80FF9A01
(2016.303862) 0 7A6#2A7D570400CA00E0
(2016.306836) 0 7A6#2B519A2D834F0300
(2016.309852) 0 7A6#2C40460000A84785
(2016.312811) 0 7A6#2DE9E8499B1D3D47
(2016.315834) 0 7A6#2E29004036000026
(2016.318913) 0 7A6#2F378DE9083EFFFF
(2016.321880) 0 7A6#20E6390000000000
(2016.324111) 0 7AE#0176000000000000

(2016.350674) 0 7A6#10E1369BD5083080
(2016.351697) 0 7AE#3000010000000000
(2016.352873) 0 7A6#21FFDA01E051CACD
(2016.355840) 0 7A6#22023243370200A3
(2016.358839) 0 7A6#236703006262B905
(2016.361830) 0 7A6#24A50DB5C5833703
(2016.364894) 0 7A6#2500A33F030080FF
(2016.367869) 0 7A6#26C2007D57040023
(2016.370883) 0 7A6#27EF050023FF0900
(2016.373843) 0 7A6#284C1A7F00581A63
(2016.376874) 0 7A6#29FF050063EF0100
(2016.379874) 0 7A6#2A06E87D07040040
(2016.382849) 0 7A6#2B5600002A5781E9
(2016.385856) 0 7A6#2C2A573100400E00
(2016.388942) 0 7A6#2D00EA5701006157
(2016.391821) 0 7A6#2ECCE93D470D00E0
(2016.394852) 0 7A6#2F41920D3D3F0900
(2016.397860) 0 7A6#203D37110080FF24
(2016.400883) 0 7A6#21027D57040023EF
(2016.403874) 0 7A6#22010023FF050048
(2016.406866) 0 7A6#231A7F00013A663F
(2016.409882) 0 7A6#24040040660000EC
(2016.412850) 0 7A6#2567C9E9E061BA05
(2016.415865) 0 7A6#26660704007F0058
(2016.418912) 0 7A6#271A63FF050063EF
(2016.421879) 0 7A6#280100405600002A
(2016.424870) 0 7A6#295781E9400E0000
(2016.427870) 0 7A6#2A2A573100404E00
(2016.430862) 0 7A6#2B00EA5701006157
(2016.433861) 0 7A6#2CCCE906E8894F85
(2016.436868) 0 7A6#2DE90946FFFF0838
(2016.439866) 0 7A6#2E8700003280FF6A
(2016.442882) 0 7A6#2F037D57040023FF
(2016.445914) 0 7A6#2005000000000000
(2016.448999) 0 7AE#0176000000000000

(2016.491554) 0 7A6#10E13623EF010048
(2016.492577) 0 7AE#3000010000000000
(2016.493865) 0 7A6#211A7F00031EECFF
(2016.497759) 0 7A6#2263FF110063E70D
(2016.501468) 0 7A6#230063EF090007E0
(2016.504386) 0 7A6#249C00860006E885
(2016.506866) 0 7A6#252D1D38015AE75F
(2016.509888) 0 7A6#26C000260684E9FF
(2016.512872) 0 7A6#27FFE64F45000B49
(2016.515855) 0 7A6#28664F4400015263
(2016.518893) 0 7A6#2957010063570500
(2016.521901) 0 7A6#2A03320040004A80
(2016.524876) 0 7A6#2BFF7605E051B205
(2016.527844) 0 7A6#2C0162951562EAB2
(2016.530867) 0 7A6#2D0563EA8A0D1D48
(2016.533898) 0 7A6#2E0930013A80FF98
(2016.537009) 0 7A6#2F02E051CAF541EA
(2016.539872) 0 7A6#209D000062FCE9F3
(2016.542880) 0 7A6#21D523E70D0023FF
(2016.545879) 0 7A6#22110023EF09000C
(2016.548902) 0 7A6#2350031E14007F00
(2016.551877) 0 7A6#24031EECFF1E4003
(2016.554900) 0 7A6#25F007D509FD05DD
(2016.557892) 0 7A6#2601ED03E507D008
(2016.560907) 0 7A6#27F040E600009C57
(2016.563842) 0 7A6#2885E93CE684E9C2
(2016.566858) 0 7A6#2952DC512A470100
(2016.570870) 0 7A6#2A06D8E8D9B30501
(2016.573853) 0 7A6#2B52E51500EAF50D
(2016.576876) 0 7A6#2C80FFF4071D38C2
(2016.579868) 0 7A6#2D3ADC3927570500
(2016.582875) 0 7A6#2EEAD9CB055AEF00
(2016.585898) 0 7A6#2F00F50541EA9D00
(2016.588921) 0 7A6#209C470000000000
(2016.592104) 0 7AE#0176000000000000

(2016.619700) 0 7A6#10E1360100E8E9F1
(2016.620723) 0 7AE#3000010000000000
(2016.621914) 0 7A6#21ED00521E3003F0
(2016.624890) 0 7A6#2206D504DD02E500
(2016.627898) 0 7A6#23ED08FD031E1400
(2016.630895) 0 7A6#2406F07F00031EDC
(2016.633894) 0 7A6#25FF1E3803F011FD
(2016.636870) 0 7A6#260FCD0DD50BDD09
(2016.642425) 0 7A6#27E507ED40D60000
(2016.644880) 0 7A6#283A6789E905353A
(2016.647888) 0 7A6#29D688E907F04162
(2016.650869) 0 7A6#2AEC31D1053AEF01
(2016.653900) 0 7A6#2B0041EAB50523EF
(2016.656924) 0 7A6#2C09003AE7050000
(2016.659892) 0 7A6#2DCA41E202DA0132
(2016.662883) 0 7A6#2E63370100633705
(2016.665898) 0 7A6#2F001B3803320042
(2016.669888) 0 7A6#20004A80FF70048A
(2016.672888) 0 7A6#2100E051BA1DE0E9
(2016.675887) 0 7A6#22921519301C381D
(2016.678910) 0 7A6#234080FF1001E051
(2016.681882) 0 7A6#24AA153ACF01003A
(2016.684890) 0 7A6#25E7090041CA236F
(2016.687898) 0 7A6#26090041E28DE91B
(2016.690896) 0 7A6#274889000930003A
(2016.693904) 0 7A6#2880FF7601E051B2
(2016.696895) 0 7A6#29050152F50541DA
(2016.700764) 0 7A6#2A64DAC1D580FF7C
(2016.703715) 0 7A6#2B0500521E3003F0
(2016.706664) 0 7A6#2C0ECD0CD50ADD08
(2016.709616) 0 7A6#2DE506ED10FD031E
(2016.712566) 0 7A6#2E240006F07F0003
(2016.715499) 0 7A6#2F1EE0FF1E5003F0
(2016.717947) 0 7A6#2007ED0000000000
(2016.720097) 0 7AE#0176000000000000

(2016.745918) 0 7A6#10E1360DD50BDD09
(2016.747894) 0 7AE#3000010000000000
(2016.749813) 0 7A6#21E50FFD06D00AF0
(2016.751925) 0 7A6#2207D808E080FFE6
(2016.754908) 0 7A6#23061B30233E0A00
(2016.757908) 0 7A6#24BFFFB0FE1C60DB
(2016.760907) 0 7A6#25610C36FFFF233E
(2016.763938) 0 7A6#260B00BFFFA0FE83
(2016.766882) 0 7A6#27470B00E50D2606
(2016.769919) 0 7A6#2884E9FFFFE63F45
(2016.772926) 0 7A6#2900014AE84FC000
(2016.775918) 0 7A6#2A0939663F440041
(2016.778909) 0 7A6#2B42C800A3670B00
(2016.781916) 0 7A6#2CEC4183F51C06FF
(2016.784932) 0 7A6#2DFEC90520EE0001
(2016.787900) 0 7A6#2EB5051CE8DD001B
(2016.790908) 0 7A6#2F381A401D480132
(2016.793915) 0 7A6#2063370500633701
(2016.796906) 0 7A6#2100A24A043280FF
(2016.799922) 0 7A6#228603E051920D40
(2016.802929) 0 7A6#234E0000294F81E9
(2016.805912) 0 7A6#24015269DF1D00F5
(2016.808911) 0 7A6#2505BDE1DDD1DDD9
(2016.811894) 0 7A6#26E0E1EADD00521E
(2016.814950) 0 7A6#273003F00CD50ADD
(2016.817909) 0 7A6#2808E506ED0EFD03
(2016.820924) 0 7A6#291E200006F07F00
(2016.823916) 0 7A6#2A031EC8FF1E4803
(2016.826915) 0 7A6#2BF013E517D519CD
(2016.829906) 0 7A6#2C11ED15DD1BFD06
(2016.832930) 0 7A6#2DD009F007C808D8
(2016.835928) 0 7A6#2E1BE81D06DFFFC9
(2016.839862) 0 7A6#2F0520E62000A505
(2016.841965) 0 7A6#201DE00000000000
(2016.844101) 0 7AE#0176000000000000

(2016.871784) 0 7A6#10E13680FF160600
(2016.872807) 0 7AE#3000010000000000
(2016.873950) 0 7A6#215AF50D0B50C252
(2016.876878) 0 7A6#221B38DA39BD390B
(2016.878878) 0 7A6#2330C232C731264F
(2016.880901) 0 7A6#240100C3516A4F01
(2016.883917) 0 7A6#2500415A1C408242
(2016.886940) 0 7A6#26E859F1ED80FFEA
(2016.890586) 0 7A6#270503301B38D939
(2016.892914) 0 7A6#28BD391C40BFFFDC
(2016.895897) 0 7A6#29FEBCE99ADD1E30
(2016.899046) 0 7A6#2A03F018CD1AFD10
(2016.901900) 0 7A6#2BED12E514DD16D5
(2016.904937) 0 7A6#2C005206F0031E38
(2016.907936) 0 7A6#2D007F00031EECFF
(2016.910928) 0 7A6#2E1E4803F005ED07
(2016.913943) 0 7A6#2FE506E89D0007E0
(2016.916950) 0 7A6#209C000132013500
(2016.919926) 0 7A6#21420932030509FD
(2016.922941) 0 7A6#22033A09F0004A80
(2016.925932) 0 7A6#23FF9E02C1521C30
(2016.928931) 0 7A6#240A311D3880FF90
(2016.931938) 0 7A6#2503E051BA0D1D48
(2016.934946) 0 7A6#2609301D40083880
(2016.938929) 0 7A6#27FF2000E051BA05
(2016.941928) 0 7A6#280052A505015223
(2016.944928) 0 7A6#29E70D0023EF0900
(2016.947927) 0 7A6#2A23FF1100031E14
(2016.950942) 0 7A6#2B007F00031EE8FF
(2016.953958) 0 7A6#2C1E4003F007E509
(2016.956926) 0 7A6#2DDD05ED0BFD07D8
(2016.959933) 0 7A6#2E08F09B00860006
(2016.962932) 0 7A6#2FE8E52501E2403E
(2016.966012) 0 7A6#2000000000000000
(2016.969921) 0 7AE#0176000000000000

(2016.999486) 0 7A6#10E136273FC8E9FD
(2017.000509) 0 7AE#3000010000000000
(2017.001964) 0 7A6#21E7C0005C39C700
(2017.004908) 0 7A6#22E039921D013263
(2017.007931) 0 7A6#2337010063370500
(2017.010955) 0 7A6#241D380632004200
(2017.013938) 0 7A6#254A80FF1E02E051
(2017.016938) 0 7A6#26B2050152F50D3C
(2017.019944) 0 7A6#2758260684E9FFFF
(2017.022912) 0 7A6#28E65745004B5166
(2017.025944) 0 7A6#2957440041EA9D00
(2017.028934) 0 7A6#2AFBE9A3DD00521E
(2017.031957) 0 7A6#2B3003F008DD06E5
(2017.034932) 0 7A6#2C04ED0AFD031E18
(2017.038931) 0 7A6#2D0006F07F00FFFF
(2017.041995) 0 7A6#2EFFFFFFFFFFFFFF
(2017.045010) 0 7A6#2FFFFFFFFFFFFFFF
(2017.048961) 0 7A6#20FFFFFFFFFFFFFF
(2017.052000) 0 7A6#21FFFFFFFFFFFFFF
(2017.055008) 0 7A6#22FFFFFFFFFFFFFF
(2017.057991) 0 7A6#23FFFFFFFFFFFFFF
(2017.060991) 0 7A6#24FFFFFFFFFFFFFF
(2017.063990) 0 7A6#25FFFFFFFFFFFFFF
(2017.066998) 0 7A6#26FFFFFFFFFFFFFF
(2017.070004) 0 7A6#27FFFFFFFFFFFFFF
(2017.073003) 0 7A6#28FFFFFFFFFFFFFF
(2017.075979) 0 7A6#29FFFFFF541A63FF
(2017.078946) 0 7A6#2A090063EF010063
(2017.081970) 0 7A6#2BE7050040EE0000
(2017.084929) 0 7A6#2CDD0738EA3DEE38
(2017.088008) 0 7A6#2DEA06E00730203E
(2017.090959) 0 7A6#2E102780FF020340
(2017.093950) 0 7A6#2F0E0000615780EA
(2017.097006) 0 7A6#2000320000000000
(2017.100939) 0 7AE#0176000000000000

(2017.143500) 0 7A6#10E1360658C15ADD
(2017.144524) 0 7AE#3000010000000000
(2017.145956) 0 7A6#21596B0704000638
(2017.148938) 0 7A6#22C23ADD39670719
(2017.151954) 0 7A6#230041326A32C1F5
(2017.154978) 0 7A6#24290608EEFFFF7D
(2017.157969) 0 7A6#254F19007DE70400
(2017.160992) 0 7A6#2623FF090023EF01
(2017.163968) 0 7A6#270023E705004C1A
(2017.166999) 0 7A6#287F00FFFFFFFFFF
(2017.170939) 0 7A6#29FFFFFFFFFFFFFF
(2017.174027) 0 7A6#2AFFFFFFFFFFFFFF
(2017.177010) 0 7A6#2BFFFFFFFFFFFFFF
(2017.180018) 0 7A6#2CFFFFFFFFFFFFFF
(2017.183017) 0 7A6#2DFFFFFFFFFFFFFF
(2017.186016) 0 7A6#2EFFFFFFFFFFFFFF
(2017.189032) 0 7A6#2FFFFFFFFFFFFFFF
(2017.192706) 0 7A6#20FFFFFFFFFFFFFF
(2017.195010) 0 7A6#21FFFFFFFFFFFFFF
(2017.198152) 0 7A6#22FFFFFFFFFFFFFF
(2017.201150) 0 7A6#23FF541A63FF0900
(2017.204132) 0 7A6#2463EF050080FF90
(2017.206956) 0 7A6#25020AE88047D5F8
(2017.209971) 0 7A6#26884602002036D4
(2017.212994) 0 7A6#27F8203ED0F880FF
(2017.215978) 0 7A6#289A0280FFAE03E0
(2017.219783) 0 7A6#2951D2FD403E0000
(2017.221942) 0 7A6#2AE73F81EA2A0638
(2017.224982) 0 7A6#2BEAFFFF63570100
(2017.228915) 0 7A6#2C00320042004A80
(2017.230962) 0 7A6#2DFF1E031D3080FF
(2017.233986) 0 7A6#2E6A0280FF8403E0
(2017.236962) 0 7A6#2F51D2FD2C0638EA
(2017.240040) 0 7A6#20FFFF0000000000
(2017.242088) 0 7AE#0176000000000000

(2017.287075) 0 7A6#10E136636701000E
(2017.289058) 0 7AE#3000010000000000
(2017.290161) 0 7A6#2132003A0042004A
(2017.292977) 0 7A6#2280FFFA0223EF05
(2017.296000) 0 7A6#230023FF09004C1A
(2017.299183) 0 7A6#247F00541A63FF09
(2017.302029) 0 7A6#250063EF050080FF
(2017.304979) 0 7A6#2618020AE880FF4A
(2017.307987) 0 7A6#2703E051D2FD2C06
(2017.310994) 0 7A6#2838EAFFFF636701
(2017.314002) 0 7A6#29000032003A0042
(2017.317009) 0 7A6#2A004A80FFC00280
(2017.319984) 0 7A6#2B47D5F8C846FD00
(2017.322991) 0 7A6#2C2036D4F8203ED0
(2017.326006) 0 7A6#2DF880FF0402403E
(2017.328998) 0 7A6#2E0000E73F81EA20
(2017.331997) 0 7A6#2F36900180FFB601
(2017.334996) 0 7A6#201D3080FFE80123
(2017.340001) 0 7A6#21EF050023FF0900
(2017.342985) 0 7A6#224C1A7F00031EDC
(2017.346016) 0 7A6#23FF1E5003F007ED
(2017.348967) 0 7A6#2411FD0DD50FCD0B
(2017.351966) 0 7A6#25DD09E506D0054D
(2017.354998) 0 7A6#26034507C80AF0BF
(2017.358005) 0 7A6#27FF06FF0AE0E0E1
(2017.360988) 0 7A6#289A55405E00002B
(2017.363988) 0 7A6#295F81E92B5F2D00
(2017.366987) 0 7A6#2A04324B370000E0
(2017.369994) 0 7A6#2B87600180EFD5F8
(2017.372978) 0 7A6#2CDDEEF70080FF78
(2017.375993) 0 7A6#2D010AD81D402036
(2017.379008) 0 7A6#2ED4F8203ED0F880
(2017.382016) 0 7A6#2FFF88011B3080FF
(2017.385046) 0 7A6#207C010000000000
(2017.388086) 0 7AE#0176000000000000

(2017.431413) 0 7A6#10E1361A302C0638
(2017.432436) 0 7AE#3000010000000000
(2017.433996) 0 7A6#21EAFFFF63670100
(2017.436987) 0 7A6#2223470500234F09
(2017.440018) 0 7A6#2300193880FF1002
(2017.442986) 0 7A6#240AE0E0E1CA1523
(2017.445978) 0 7A6#2577290061728A15
(2017.449001) 0 7A6#262B0638EAFFFF63
(2017.452016) 0 7A6#275F01000B32003A
(2017.455024) 0 7A6#280042004A80FFEC
(2017.458798) 0 7A6#29010AE01C0601FF
(2017.460989) 0 7A6#2AA2F580EFD5F89D
(2017.464036) 0 7A6#2BEE080080FF1001
(2017.466996) 0 7A6#2C0AD81D402036D4
(2017.470896) 0 7A6#2DF8203ED0F880FF
(2017.472984) 0 7A6#2E20011B3080FF14
(2017.476039) 0 7A6#2F01E0076001BFFF
(2017.479022) 0 7A6#20D0FE4046000028
(2017.481998) 0 7A6#214781E928472D00
(2017.485014) 0 7A6#2220364700483700
(2017.488029) 0 7A6#23001C501E3003F0
(2017.490988) 0 7A6#240ECD0CD50ADD08
(2017.494012) 0 7A6#25E506ED10FD031E
(2017.497036) 0 7A6#26240006F07F0003
(2017.500905) 0 7A6#271EECFF1E4803F0
(2017.503823) 0 7A6#2805ED004206E803
(2017.506014) 0 7A6#290507E509FD07E0
(2017.509244) 0 7A6#2A013A013D093209
(2017.512028) 0 7A6#2BF0004ABFFFE2FE
(2017.515028) 0 7A6#2C8A528152B10505
(2017.518818) 0 7A6#2D52C50D1C380132
(2017.520994) 0 7A6#2E63370100633705
(2017.524024) 0 7A6#2F001D400A32004A
(2017.527064) 0 7A6#20BFFF0000000000
(2017.530086) 0 7AE#0176000000000000

(2017.571296) 0 7A6#10E136C2FE23E70D
(2017.572319) 0 7AE#3000010000000000
(2017.574031) 0 7A6#210023EF090023FF
(2017.577030) 0 7A6#221100031E14007F
(2017.580030) 0 7A6#2300541A63FF0900
(2017.583037) 0 7A6#24013A633F010000
(2017.586988) 0 7A6#2542630705000932
(2017.590034) 0 7A6#26004ABFFF96FE8C
(2017.593010) 0 7A6#27528152B1050552
(2017.596018) 0 7A6#28B50D003A630701
(2017.599033) 0 7A6#2900630705000C32
(2017.602032) 0 7A6#2A0042004ABFFF78
(2017.605032) 0 7A6#2BFE23FF09004C1A
(2017.608879) 0 7A6#2C7F00473006507F
(2017.611022) 0 7A6#2D00E73006507F00
(2017.614022) 0 7A6#2EEA3F4202E63F22
(2017.617037) 0 7A6#2F028D3A00000000
(2017.620075) 0 7A6#20073EFFFF000000
(2017.623074) 0 7A6#2100000000008FFD
(2017.626026) 0 7A6#227F005C1A63A701
(2017.629033) 0 7A6#2300E557400020A6
(2017.632032) 0 7A6#24A000F42F200023
(2017.635032) 0 7A6#25A70100441A7F00
(2017.638870) 0 7A6#26E62F20007F0058
(2017.643194) 0 7A6#271A63A7010063AF
(2017.646025) 0 7A6#28050028A020AEA5
(2017.649024) 0 7A6#290047AF00004647
(2017.652047) 0 7A6#2A000046A7000046
(2017.655030) 0 7A6#2B47000023A70100
(2017.658030) 0 7A6#2C23AF0500481A7F
(2017.661037) 0 7A6#2D00031ECCFF6317
(2017.664037) 0 7A6#2E0100632F050063
(2017.667013) 0 7A6#2F370900633F0D00
(2017.670074) 0 7A6#2063470000000000
(2017.672081) 0 7AE#0176000000000000
(2017.700172) 0 7A6#10E1361100634F15
(2017.706012) 0 7AE#3000010000000000
(2017.711864) 0 7A6#2100635F19006367
(2017.714806) 0 7A6#221D00636F210063
(2017.717660) 0 7A6#2377250063EF2900
(2017.720546) 0 7A6#2463F72D00E56740
(2017.723025) 0 7A6#2500636731007F00
(2017.726016) 0 7A6#2623673100EC2F20
(2017.729056) 0 7A6#270023170100232F
(2017.732055) 0 7A6#2805002337090023
(2017.735047) 0 7A6#293F0D0023471100
(2017.738853) 0 7A6#2A234F1500235F19
(2017.741045) 0 7A6#2B0023671D00236F
(2017.744036) 0 7A6#2C21002377250023
(2017.747036) 0 7A6#2DEF290023F72D00
(2017.750051) 0 7A6#2E031E34007F0003
(2017.753058) 0 7A6#2F1EFCFF63FF0100
(2017.756058) 0 7A6#20BFFF7CFF23F739
(2017.759081) 0 7A6#2100FF070001BFFF
(2017.762056) 0 7A6#22AEFF23FF010003
(2017.765096) 0 7A6#231E04007F00031E
(2017.770812) 0 7A6#24E4FF63FF010063
(2017.773028) 0 7A6#25CF050063D70900
(2017.776043) 0 7A6#2663DF0D0063E711
(2017.779026) 0 7A6#2700630F15006357
(2017.782058) 0 7A6#281900BFFF42FF80
(2017.785073) 0 7A6#29FF6400BFFF78FF
(2017.788049) 0 7A6#2A23FF010023CF05
(2017.791056) 0 7A6#2B0023D7090023DF
(2017.795007) 0 7A6#2C0D0023E7110023
(2017.798038) 0 7A6#2D0F150023571900
(2017.801054) 0 7A6#2E031E1C007F005C
(2017.804061) 0 7A6#2F1A63FF01004036
(2017.807125) 0 7A6#2000000000000000
(2017.810076) 0 7AE#0176000000000000

(2017.839303) 0 7A6#10DD36263781E926
(2017.840326) 0 7AE#3000010000000000
(2017.842070) 0 7A6#21372D00065F0000
(2017.845062) 0 7A6#22CB5680000A0680
(2017.848077) 0 7A6#23FF9A0DCB3E7F00
(2017.851076) 0 7A6#24463F000080FF12
(2017.854060) 0 7A6#25000152A5050052
(2017.857067) 0 7A6#2623FF0100441A7F
(2017.860066) 0 7A6#2700541A63FF0900
(2017.863066) 0 7A6#2863EF010063E705
(2017.866065) 0 7A6#290040EE00003D3F
(2017.869814) 0 7A6#2A81E9273731003D
(2017.872046) 0 7A6#2BEE80E9E6670100
(2017.875046) 0 7A6#2CE061921D5F6266
(2017.878069) 0 7A6#2D670000CC00E061
(2017.881052) 0 7A6#2EBA152747250020
(2017.885003) 0 7A6#2F36000168370000
(2017.887075) 0 7A6#2020360002683700
(2017.890066) 0 7A6#2100406600002737
(2017.893048) 0 7A6#223100EC67CDE966
(2017.896056) 0 7A6#2367000027373500
(2017.899055) 0 7A6#24E0318225865F01
(2017.902924) 0 7A6#2500E059C21D5F5A
(2017.905858) 0 7A6#26465F00003D3F01
(2017.908064) 0 7A6#2700273F3500873F
(2017.911072) 0 7A6#280100E0399A153D
(2017.914079) 0 7A6#2937010026E71500
(2017.917087) 0 7A6#2A3F061CEFFFFF7C
(2017.920086) 0 7A6#2B003D3F01002737
(2017.923053) 0 7A6#2C35008767390046
(2017.926084) 0 7A6#2D67000023E70500
(2017.929084) 0 7A6#2E23EF010023FF09
(2017.932107) 0 7A6#2F004C1A7F000000
(2017.934058) 0 7AE#0176000000000000
<!-- request transfer exit -->
(2017.957150) 0 7A6#0137000000000000
(2017.959318) 0 7AE#037F377800000000
(2017.973930) 0 7AE#037F377800000000
(2018.000745) 0 7AE#0177000000000000

(2018.021197) 0 7A6#023E020000000000

(2020.020461) 0 7A6#023E020000000000
<!-- diagnosticCommand 0xB1 00 B2  --> methinky flash erase 
(2020.263080) 0 7A6#04B100B200000000
<!-- negative response code 0x78....request received response pending -->
(2020.264272) 0 7AE#037FB17800000000
(2020.266935) 0 7AE#037FB17800000000
(2020.269860) 0 7AE#037FB17800000000
(2024.855594) 0 7AE#037FB17800000000
(2024.856562) 0 7AE#037FB17800000000
(2027.108540) 0 7AE#037FB17800000000
(2027.109508) 0 7AE#037FB17800000000
(2027.602531) 0 7AE#037FB17800000000
(2027.603498) 0 7AE#037FB17800000000
(2029.604479) 0 7AE#037FB17800000000
(2029.605446) 0 7AE#037FB17800000000
(2031.591436) 0 7AE#037FB17800000000
(2031.592402) 0 7AE#037FB17800000000
(2032.051422) 0 7AE#037FB17800000000
(2032.052388) 0 7AE#037FB17800000000
<!--positive response to diagnosticCommand flashErase-->
(2032.513413) 0 7AE#03F100B200000000
<!--testerPresent suppressResponse-->
(2033.002240) 0 7A6#023E020000000000
(2035.001510) 0 7A6#023E020000000000
<!-- requestDownload --> to ecu is download, from ecu is upload
(2035.370156) 0 7A6#1009340000450000
(2035.371179) 0 7AE#3000010000000000
(2035.372491) 0 7A6#2100016400000000
(2035.374954) 0 7AE#037400E100000000
<!--transfer data 0x36-->
(2035.399758) 0 7A6#10E1368107E03EE0
(2035.400782) 0 7AE#3000010000000000
(2035.402461) 0 7A6#21074001E0074001
(2035.405507) 0 7A6#22E0074001E00740
(2035.408458) 0 7A6#2301E0074001E007
(2035.411466) 0 7A6#244001E0074001E0
(2035.414474) 0 7A6#25074001E0074001
(2035.417688) 0 7A6#26E0074001E00740
(2035.420480) 0 7A6#2701E0074001E007
(2035.423471) 0 7A6#284001E0074001E0
(2035.426471) 0 7A6#29074001E0074001
(2035.429462) 0 7A6#2A8107D44DE00740
(2035.432477) 0 7A6#2B01E0074001E007
(2035.435460) 0 7A6#2C4001E007400181
(2035.438476) 0 7A6#2D07524FE0074001
(2035.441467) 0 7A6#2EE0074001E00740
(2035.444474) 0 7A6#2F01E0074001E007
(2035.447490) 0 7A6#204001E0074001E0
(2035.450474) 0 7A6#21074001E0074001
(2035.453473) 0 7A6#22E0074001E00740
(2035.456472) 0 7A6#2301E0074001E007
(2035.459480) 0 7A6#244001E0074001E0
(2035.462463) 0 7A6#25074001E0074001
(2035.465478) 0 7A6#26E0074001E00740
(2035.468684) 0 7A6#2701E0074001E007
(2035.471460) 0 7A6#2840018107A25681
(2035.474467) 0 7A6#2907DC688107F467
(2035.478552) 0 7A6#2A8107A069810758
(2035.481448) 0 7A6#2B6B820744F5E007
(2035.484487) 0 7A6#2C40018107D057E0
(2035.487702) 0 7A6#2D074001E0074001
(2035.490478) 0 7A6#2EE0074001E00740
(2035.493478) 0 7A6#2F0181075E4CE007
(2035.496510) 0 7A6#2040010000000000
(2035.499588) 0 7AE#037F367800000000
(2035.500548) 0 7AE#037F367800000000
(2035.508371) 0 7AE#0176000000000000

(2035.522848) 0 7A6#108536E0074001E0
(2035.523872) 0 7AE#3000010000000000
(2035.525479) 0 7A6#21074001E0074001
(2035.530548) 0 7A6#22E0074001E00740
(2035.534456) 0 7A6#2301E0074001E007
(2035.537487) 0 7A6#244001E0074001E0
(2035.540486) 0 7A6#25074001E0074001
(2035.543486) 0 7A6#26E0074001E00740
(2035.546493) 0 7A6#2701E0074001E007
(2035.549484) 0 7A6#284001E0074001E0
(2035.552492) 0 7A6#29074001E0074001
(2035.555483) 0 7A6#2AE0074001E00740
(2035.558498) 0 7A6#2B01E0074001E007
(2035.561490) 0 7A6#2C4001E0074001E0
(2035.564490) 0 7A6#2D074001E0074001
(2035.567688) 0 7A6#2EE0074001E00740
(2035.570488) 0 7A6#2F01E0074001E007
(2035.573511) 0 7A6#204001E0074001E0
(2035.576478) 0 7A6#21074001E0074001
(2035.579494) 0 7A6#22E0074001E00740
(2035.582517) 0 7A6#2301000000000000
(2035.584309) 0 7AE#037F367800000000
(2035.585269) 0 7AE#037F367800000000
(2035.591370) 0 7AE#0176000000000000
(2035.611882) 0 7A6#0137000000000000
(2035.612930) 0 7AE#037F377800000000
(2035.614449) 0 7AE#0177000000000000

(2035.641029) 0 7A6#1009340000470000
(2035.642052) 0 7AE#3000010000000000
(2035.643516) 0 7A6#2100001000000000
(2035.645947) 0 7AE#037400E100000000

(2035.676476) 0 7A6#101136B501000001
(2035.678418) 0 7AE#3000010000000000
(2035.679641) 0 7A6#2100000000450000
(2035.682528) 0 7A6#22FFFF0300000000
(2035.683968) 0 7AE#037F367800000000
(2035.684928) 0 7AE#037F367800000000
(2035.688366) 0 7AE#0176000000000000

(2035.707692) 0 7A6#0137000000000000
(2035.709930) 0 7AE#037F377800000000
(2035.710906) 0 7AE#0177000000000000

(2035.737782) 0 7A6#1009340000480000
(2035.739749) 0 7AE#3000010000000000
(2035.741652) 0 7A6#210139F400000000
(2035.744618) 0 7AE#037400E100000000

(2035.763825) 0 7A6#10E1362000200020
(2035.764848) 0 7AE#3000010000000000
(2035.768782) 0 7A6#2100200001160000
(2035.771525) 0 7A6#2201200100F00000
(2035.774533) 0 7A6#2300012200000100
(2035.777611) 0 7A6#24000004261200B8
(2035.780483) 0 7A6#251EB81E7015540C
(2035.783522) 0 7A6#264C0C1C0C140C14
(2035.786514) 0 7A6#270C080C080CFC0B
(2035.789505) 0 7A6#28FC0BF00BD80BD8
(2035.792488) 0 7A6#290BA40BA40B940B
(2035.795504) 0 7A6#2A940B880B7C0B7C
(2035.798487) 0 7A6#2B0B700B700B640B
(2035.801495) 0 7A6#2C640B4C0B4C0B3C
(2035.804494) 0 7A6#2D0B3C0B340B340B
(2035.807518) 0 7A6#2E040B040B080808
(2035.810525) 0 7A6#2F08080808080808
(2035.813532) 0 7A6#2008080808080808
(2035.816508) 0 7A6#2108080808080808
(2035.819522) 0 7A6#2208080808080808
(2035.822530) 0 7A6#230808080000FCE0
(2035.825521) 0 7A6#24FF0304E1FF03E0
(2035.828592) 0 7A6#25E2FF030CE1FF03
(2035.831496) 0 7A6#2614E1FF031CE1FF
(2035.834495) 0 7A6#270324E1FF032CE1
(2035.837510) 0 7A6#28FF0334E1FF033C
(2035.840518) 0 7A6#29E1FF0344E1FF03
(2035.843510) 0 7A6#2A4CE1FF0354E1FF
(2035.846501) 0 7A6#2B035CE1FF0364E1
(2035.849508) 0 7A6#2CFF036CE1FF0374
(2035.852524) 0 7A6#2DE1FF037CE1FF03
(2035.855499) 0 7A6#2E84E1FF038CE1FF
(2035.859289) 0 7A6#2F0394E1FF039CE1
(2035.861568) 0 7A6#20FF030000000000
(2035.864575) 0 7AE#037F367800000000
(2035.865534) 0 7AE#037F367800000000
(2035.872365) 0 7AE#0176000000000000

(2035.906301) 0 7A6#10E136A4E1FF03AC
(2035.907324) 0 7AE#3000010000000000
(2035.908500) 0 7A6#21E1FF03B4E1FF03
(2035.911515) 0 7A6#22BCE1FF03C4E1FF
(2035.914506) 0 7A6#2303CCE1FF03D4E1
(2035.917640) 0 7A6#24FF03DCE1FF03E4
(2035.920520) 0 7A6#25E1FF03ECE1FF03
(2035.923520) 0 7A6#26F4E1FF03FCE1FF
(2035.926527) 0 7A6#2703EAEC0100E2EB
(2035.930396) 0 7A6#280100D6E3010000
(2035.933282) 0 7A6#2900000000000000
(2035.937216) 0 7A6#2A00000000EAEC01
(2035.939511) 0 7A6#2B00E2EB0100EAEC
(2035.942527) 0 7A6#2C0100E2EB0100EA
(2035.945518) 0 7A6#2DEC0100E2EB0100
(2035.948517) 0 7A6#2E04DB0100EAEC01
(2035.951508) 0 7A6#2F00E2EB0100EAEC
(2035.954524) 0 7A6#200100E2EB0100EA
(2035.958506) 0 7A6#21EC0100E2EB0100
(2035.961545) 0 7A6#2200000000EAEC01
(2035.964521) 0 7A6#2300E2EB0100EAEC
(2035.967631) 0 7A6#240100E2EB0100EA
(2035.970518) 0 7A6#25EC0100E2EB0100
(2035.973526) 0 7A6#26EAEC0100E2EB01
(2035.976533) 0 7A6#2700EAEC0100E2EB
(2035.979531) 0 7A6#280100EAEC0100E2
(2035.982530) 0 7A6#29EB0100EAEC0100
(2035.985538) 0 7A6#2AE2EB0100020201
(2035.988554) 0 7A6#2B04040404040404
(2035.991545) 0 7A6#2C04040404040404
(2035.994544) 0 7A6#2D04040404040404
(2035.997552) 0 7A6#2E04040404040404
(2036.000575) 0 7A6#2F04040400000000
(2036.003599) 0 7A6#2000000000000000
(2036.006574) 0 7AE#037F367800000000
(2036.008524) 0 7AE#037F367800000000
(2036.014363) 0 7AE#0176000000000000

(2036.050672) 0 7A6#10E1360000000000
(2036.051696) 0 7AE#3000010000000000
(2036.053583) 0 7A6#2100000000000000
(2036.056590) 0 7A6#2200000000000000
(2036.059590) 0 7A6#2300000000000000
(2036.062589) 0 7A6#2400000000000102
(2036.065589) 0 7A6#2504000000000000
(2036.068667) 0 7A6#2608000000000000
(2036.071578) 0 7A6#2710000000000000
(2036.074586) 0 7A6#2800000000000000
(2036.077592) 0 7A6#2900F01B24100C10
(2036.080544) 0 7A6#2A800DC00C5C0C48
(2036.083543) 0 7A6#2B0BA004981E1810
(2036.087406) 0 7A6#2C4C0D440C3C0C34
(2036.089550) 0 7A6#2D0C2C0C240C100C
(2036.092557) 0 7A6#2E040CF80BE40BD4
(2036.095532) 0 7A6#2F0BD00BC80BBC0B
(2036.098548) 0 7A6#20B00BA00B980B90
(2036.101539) 0 7A6#210B840B780B6C0B
(2036.104538) 0 7A6#22600B500B380B30
(2036.107554) 0 7A6#230B280B000B0000
(2036.110569) 0 7A6#2401000200030004
(2036.113797) 0 7A6#2500050017000600
(2036.116572) 0 7A6#2618000700080009
(2036.119587) 0 7A6#27000A000B000C00
(2036.122554) 0 7A6#280D0019001A001B
(2036.125578) 0 7A6#29000E001C000F00
(2036.129566) 0 7A6#2A1000110012001D
(2036.133426) 0 7A6#2B0013001E001400
(2036.139293) 0 7A6#2C1F002000210015
(2036.141573) 0 7A6#2D00220023001600
(2036.144548) 0 7A6#2E24000808070506
(2036.147556) 0 7A6#2F08020308080607
(2036.150596) 0 7A6#2008080000000000
(2036.152571) 0 7AE#037F367800000000
(2036.153530) 0 7AE#037F367800000000
(2036.161356) 0 7AE#0176000000000000

(2036.183873) 0 7A6#10E1360806080707
(2036.184896) 0 7AE#3000010000000000
(2036.186568) 0 7A6#2104030802000000
(2036.189614) 0 7A6#2200000000000000
(2036.192590) 0 7A6#23000000000044E0
(2036.195557) 0 7A6#24FF0304E2FF030C
(2036.198556) 0 7A6#25E2FF0314E2FF03
(2036.201548) 0 7A6#261CE2FF0324E2FF
(2036.204555) 0 7A6#27032CE2FF039CE0
(2036.207570) 0 7A6#28FF038CE0FF0330
(2036.210554) 0 7A6#29E2FF0338E2FF03
(2036.213585) 0 7A6#2A40E2FF0384E0FF
(2036.216536) 0 7A6#2B0348E2FF0350E2
(2036.219576) 0 7A6#2CFF037CE0FF0358
(2036.222567) 0 7A6#2DE2FF0360E2FF03
(2036.226262) 0 7A6#2E68E2FF0370E2FF
(2036.229163) 0 7A6#2F03ACE0FF03A0E0
(2036.232145) 0 7A6#20FF0374E2FF0378
(2036.235135) 0 7A6#21E2FF0300000000
(2036.237550) 0 7A6#2280E2FF0388E2FF
(2036.240558) 0 7A6#230390E2FF0398E2
(2036.243566) 0 7A6#24FF03A0E2FF03A8
(2036.246573) 0 7A6#25E2FF03B0E2FF03
(2036.249571) 0 7A6#26B8E2FF03C0E2FF
(2036.252563) 0 7A6#2703C8E2FF03D0E2
(2036.255586) 0 7A6#28FF03D8E2FF0300
(2036.258618) 0 7A6#2900000000000000
(2036.261601) 0 7A6#2A00000000FCDA01
(2036.264616) 0 7A6#2B00000000000000
(2036.267623) 0 7A6#2C0000F4DA0100EC
(2036.270558) 0 7A6#2DDA0100E4DA0100
(2036.273622) 0 7A6#2E00000000000000
(2036.276606) 0 7A6#2F00000000000000
(2036.279628) 0 7A6#2000000000000000
(2036.281571) 0 7AE#037F367800000000
(2036.282530) 0 7AE#037F367800000000
(2036.289353) 0 7AE#0176000000000000

(2036.311934) 0 7A6#10E1360000000000
(2036.312966) 0 7AE#3000010000000000
(2036.314622) 0 7A6#2100000000000000
(2036.317628) 0 7A6#22DCDA0100000000
(2036.320611) 0 7A6#2300000000000000
(2036.323578) 0 7A6#240000D4DA0100CC
(2036.326618) 0 7A6#25DA010000000000
(2036.330399) 0 7A6#2692ED010092ED01
(2036.333220) 0 7A6#270092ED010092ED
(2036.337138) 0 7A6#28010092ED010092
(2036.340057) 0 7A6#29ED010092ED0100
(2036.342561) 0 7A6#2A92ED010092ED01
(2036.345568) 0 7A6#2B0092ED010092ED
(2036.348576) 0 7A6#2C010092ED010092
(2036.351575) 0 7A6#2DED010092ED0100
(2036.354630) 0 7A6#2E00000000000000
(2036.357606) 0 7A6#2F000000000076DA
(2036.360621) 0 7A6#2001000000000000
(2036.363589) 0 7A6#210000006CDA0100
(2036.366580) 0 7A6#2262DA010058DA01
(2036.369625) 0 7A6#2300000000000000
(2036.372632) 0 7A6#2400000000000000
(2036.375632) 0 7A6#2500000000000000
(2036.378631) 0 7A6#2600000000000000
(2036.381606) 0 7A6#27004EDA01000000
(2036.384693) 0 7A6#2800000000000000
(2036.387604) 0 7A6#2900000044DA0100
(2036.390612) 0 7A6#2A3ADA0100000000
(2036.393627) 0 7A6#2B00000000000000
(2036.396627) 0 7A6#2C00000000000000
(2036.399626) 0 7A6#2D00000000000000
(2036.402626) 0 7A6#2E00000000000000
(2036.406279) 0 7A6#2F00000000000000
(2036.408655) 0 7A6#2000000000000000
(2036.411566) 0 7AE#037F367800000000
(2036.412525) 0 7AE#037F367800000000
(2036.420355) 0 7AE#0176000000000000

(2036.460982) 0 7A6#10E1360000000000
(2036.462005) 0 7AE#3000010000000000
(2036.463652) 0 7A6#2100000000000000
(2036.466644) 0 7A6#2200000000000000
(2036.469642) 0 7A6#2300000000000000
(2036.472626) 0 7A6#2400000101010101
(2036.475610) 0 7A6#2501010102020202
(2036.478641) 0 7A6#2602020200000000
(2036.481640) 0 7A6#2700000000000000
(2036.484624) 0 7A6#2800000001020408
(2036.488621) 0 7A6#2910204080010204
(2036.491612) 0 7A6#2A08102040800102
(2036.494637) 0 7A6#2B04081020400000
(2036.497636) 0 7A6#2C00000000000000
(2036.500636) 0 7A6#2D00000000000000
(2036.503635) 0 7A6#2E0D00080006000A
(2036.506634) 0 7A6#2F001C001E002000
(2036.509626) 0 7A6#2011000F001A0018
(2036.512625) 0 7A6#2100160014000100
(2036.515624) 0 7A6#220E00090007000B
(2036.518624) 0 7A6#23001D001F002100
(2036.521623) 0 7A6#24120010001B0019
(2036.524630) 0 7A6#2500170015000000
(2036.527612) 0 7A6#26E20A020002B701
(2036.531274) 0 7A6#270002B7010002B7
(2036.534137) 0 7A6#28010002B7010002
(2036.537983) 0 7A6#29B7010002B70100
(2036.540590) 0 7A6#2A02B7010002B701
(2036.543606) 0 7A6#2B0002B7010002B7
(2036.547596) 0 7A6#2C010002B7010002
(2036.550620) 0 7A6#2DB7010002B70100
(2036.553635) 0 7A6#2E240B0200FEB601
(2036.556610) 0 7A6#2F00FEB60100FEB6
(2036.559658) 0 7A6#2001000000000000
(2036.562561) 0 7AE#037F367800000000
(2036.563520) 0 7AE#037F367800000000
(2036.571350) 0 7AE#0176000000000000

(2036.605108) 0 7A6#10E136FEB60100FE
(2036.606131) 0 7AE#3000010000000000
(2036.608065) 0 7A6#21B60100FEB60100
(2036.610616) 0 7A6#22FEB60100FEB601
(2036.613616) 0 7A6#2300FEB60100FEB6
(2036.617614) 0 7A6#240100FEB60100FE
(2036.620621) 0 7A6#25B60100FEB60100
(2036.624200) 0 7A6#26460B0200FCB601
(2036.627558) 0 7A6#2700FCB60100FCB6
(2036.629629) 0 7A6#280100FCB60100FC
(2036.632636) 0 7A6#29B60100FCB60100
(2036.635619) 0 7A6#2AFCB60100FCB601
(2036.638626) 0 7A6#2B00FCB60100FCB6
(2036.641642) 0 7A6#2C0100FCB60100FC
(2036.644609) 0 7A6#2DB60100FCB60100
(2036.647632) 0 7A6#2EFAB60100FAB601
(2036.650624) 0 7A6#2F00FAB60100FAB6
(2036.653639) 0 7A6#200100FAB60100FA
(2036.658403) 0 7A6#21B60100FAB60100
(2036.660610) 0 7A6#22FAB60100FAB601
(2036.663626) 0 7A6#2300FAB60100FAB6
(2036.668584) 0 7A6#240100FAB60100FA
(2036.671624) 0 7A6#25B60100FAB60100
(2036.674615) 0 7A6#264C0B0200E2B601
(2036.678445) 0 7A6#2700E2B60100E2B6
(2036.680620) 0 7A6#280100E2B60100E2
(2036.683620) 0 7A6#29B60100E2B60100
(2036.686626) 0 7A6#2AE2B60100E2B601
(2036.689609) 0 7A6#2B00E2B60100E2B6
(2036.692624) 0 7A6#2C0100E2B60100E2
(2036.695632) 0 7A6#2DB60100E2B60100
(2036.698648) 0 7A6#2E01010101010101
(2036.701631) 0 7A6#2F01010101010101
(2036.704702) 0 7A6#2000000000000000
(2036.707558) 0 7AE#037F367800000000
(2036.708517) 0 7AE#037F367800000000
(2036.715348) 0 7AE#0176000000000000

(2036.749307) 0 7A6#10E136740A0200C4
(2036.750330) 0 7AE#3000010000000000
(2036.751633) 0 7A6#21B60100C4B60100
(2036.754616) 0 7A6#22C4B60100C4B601
(2036.757624) 0 7A6#2300C4B60100C4B6
(2036.760631) 0 7A6#240100C4B60100C4
(2036.763638) 0 7A6#25B60100C4B60100
(2036.767588) 0 7A6#26C4B60100C4B601
(2036.769612) 0 7A6#2700C4B60100C4B6
(2036.772660) 0 7A6#280100340A02009C
(2036.775635) 0 7A6#29440200F05F0300
(2036.778650) 0 7A6#2ADC5F0300C85F03
(2036.781633) 0 7A6#2B001AAC0300BCAB
(2036.784640) 0 7A6#2C030076AC0300DE
(2036.787655) 0 7A6#2D600300BA600300
(2036.790638) 0 7A6#2EA2600300506103
(2036.793646) 0 7A6#2F002A6103000461
(2036.796661) 0 7A6#200300320B02008E
(2036.799652) 0 7A6#2144020002600300
(2036.802660) 0 7A6#221E600300106003
(2036.805635) 0 7A6#23000AAC0300ACAB
(2036.808634) 0 7A6#24030068AC0300D0
(2036.811658) 0 7A6#25600300AC600300
(2036.814650) 0 7A6#2698600300426103
(2036.817672) 0 7A6#27001C610300F660
(2036.820648) 0 7A6#280300B00A020074
(2036.823672) 0 7A6#2960030050600300
(2036.827582) 0 7A6#2A506003002C6003
(2036.829630) 0 7A6#2B0056AC0300F8AB
(2036.832654) 0 7A6#2C030092AC03009C
(2036.836380) 0 7A6#2D61030068610300
(2036.838619) 0 7A6#2E9C6103009C6103
(2036.841642) 0 7A6#2F009C6103009C61
(2036.844706) 0 7A6#2003000000000000
(2036.847592) 0 7AE#037F367800000000
(2036.848551) 0 7AE#037F367800000000
(2036.856342) 0 7AE#0176000000000000
(2036.890697) 0 7A6#10E136C2B60100C2
(2036.891721) 0 7AE#3000010000000000
(2036.893640) 0 7A6#21B60100C2B60100
(2036.896656) 0 7A6#22C2B60100C2B601
(2036.899647) 0 7A6#2300C2B60100C2B6
(2036.902646) 0 7A6#240100C2B60100C2
(2036.905654) 0 7A6#25B60100C2B60100
(2036.908644) 0 7A6#26C2B60100C2B601
(2036.911650) 0 7A6#2700C2B60100C2B6
(2036.914674) 0 7A6#280100C0B60100C0
(2036.918487) 0 7A6#29B60100C0B60100
(2036.920654) 0 7A6#2AC0B60100C0B601
(2036.923662) 0 7A6#2B00C0B60100C0B6
(2036.927548) 0 7A6#2C0100C0B60100C0
(2036.929852) 0 7A6#2DB60100C0B60100
(2036.932705) 0 7A6#2EC0B60100C0B601
(2036.937558) 0 7A6#2F00C0B60100C0B6
(2036.939678) 0 7A6#200100D6090200BE
(2036.942669) 0 7A6#21B60100BEB60100
(2036.945660) 0 7A6#22BEB60100BEB601
(2036.948660) 0 7A6#2300BEB60100BEB6
(2036.951667) 0 7A6#240100BEB60100BE
(2036.954667) 0 7A6#25B60100BEB60100
(2036.957666) 0 7A6#26BEB60100BEB601
(2036.960666) 0 7A6#2700BEB60100BEB6
(2036.963665) 0 7A6#280100BCB60100BC
(2036.968550) 0 7A6#29B60100BCB60100
(2036.970653) 0 7A6#2ABCB60100BCB601
(2036.973660) 0 7A6#2B00BCB60100BCB6
(2036.977532) 0 7A6#2C0100BCB60100BC
(2036.979651) 0 7A6#2DB60100BCB60100
(2036.982650) 0 7A6#2EBCB60100BCB601
(2036.985650) 0 7A6#2F00BCB60100BCB6
(2036.988713) 0 7A6#2001000000000000
(2036.990552) 0 7AE#037F367800000000
(2036.991512) 0 7AE#037F367800000000
(2036.998342) 0 7AE#0176000000000000

(2037.047200) 0 7A6#10E1360101010101
(2037.048223) 0 7AE#3000010000000000
(2037.049687) 0 7A6#2101010101010101
(2037.052718) 0 7A6#2201010000FFFFFF
(2037.055694) 0 7A6#23FF030302020404
(2037.058669) 0 7A6#24FF010109090808
(2037.061660) 0 7A6#25FF0D0D0C0C0B0B
(2037.064700) 0 7A6#260A0A0505060607
(2037.067746) 0 7A6#2707FFFFFFFFFFFF
(2037.070713) 0 7A6#28FFFFFFFFFFFFFF
(2037.073744) 0 7A6#29FFFFFFFFFFFFFF
(2037.077560) 0 7A6#2AFFFFFF0A000302
(2037.079671) 0 7A6#2B040109080D0C0B
(2037.082686) 0 7A6#2C050607080A0808
(2037.086398) 0 7A6#2D08080808080808
(2037.089347) 0 7A6#2E08080828000000
(2037.091730) 0 7A6#2F00000000000000
(2037.094722) 0 7A6#2000000009040404
(2037.097689) 0 7A6#2104090909040404
(2037.100696) 0 7A6#2204040408080808
(2037.103680) 0 7A6#2308090909080808
(2037.106711) 0 7A6#2408080802020202
(2037.109710) 0 7A6#2502020202020202
(2037.112686) 0 7A6#2602020200002709
(2037.115709) 0 7A6#27000835FF1FFF1F
(2037.118708) 0 7A6#28FF1FFF1FFFFFFF
(2037.121724) 0 7A6#29FFFFFFFFFF0000
(2037.124715) 0 7A6#2A000000000000FF
(2037.127729) 0 7A6#2BFFFFFFFFFFFFFF
(2037.131008) 0 7A6#2C00000403000001
(2037.140718) 0 7A6#2D15000000000007
(2037.143742) 0 7A6#2EFF000000000000
(2037.148003) 0 7A6#2F00000000000000
(2037.150746) 0 7A6#2000000000000000
(2037.152553) 0 7AE#037F367800000000
(2037.153512) 0 7AE#037F367800000000
(2037.160336) 0 7AE#0176000000000000

(2037.184700) 0 7A6#10E1360000000000
(2037.185723) 0 7AE#3000010000000000
(2037.187746) 0 7A6#2100000000000200
(2037.190690) 0 7A6#22AC500000B45000
(2037.193705) 0 7A6#2300BC500000C450
(2037.196745) 0 7A6#2400000000000003
(2037.199752) 0 7A6#2500040005000C00
(2037.202704) 0 7A6#2613000101010101
(2037.205719) 0 7A6#2701010101010603
(2037.208678) 0 7A6#280603061919320A
(2037.211686) 0 7A6#29191919320A1900
(2037.214709) 0 7A6#2AFA00F401F401F4
(2037.217746) 0 7A6#2B01F401F401F401
(2037.220746) 0 7A6#2C00000000000000
(2037.223722) 0 7A6#2D01020408102040
(2037.227519) 0 7A6#2E42C001002EC001
(2037.229719) 0 7A6#2F001AC0010006C0
(2037.233196) 0 7A6#200100F2BF0100DE
(2037.236162) 0 7A6#21BF0100CABF0100
(2037.238722) 0 7A6#2203670000028500
(2037.241721) 0 7A6#23007E0000000700
(2037.244752) 0 7A6#24000000000000E0
(2037.247736) 0 7A6#2508020000000000
(2037.250735) 0 7A6#2651000000070000
(2037.253734) 0 7A6#2700000000002E05
(2037.256742) 0 7A6#2802000000000058
(2037.259741) 0 7A6#2900000007000000
(2037.262716) 0 7A6#2A00000000E60302
(2037.265748) 0 7A6#2B00000000005400
(2037.268739) 0 7A6#2C00000700000000
(2037.271730) 0 7A6#2D00000028030200
(2037.274738) 0 7A6#2E00000000500000
(2037.277752) 0 7A6#2F00070000000000
(2037.280776) 0 7A6#2000000000000000
(2037.282543) 0 7AE#037F367800000000
(2037.283503) 0 7AE#037F367800000000
(2037.291334) 0 7AE#0176000000000000
(2037.313165) 0 7A6#10E136840902002E
(2037.314188) 0 7AE#3000010000000000
(2037.315716) 0 7A6#21090200E0000000
(2037.318762) 0 7A6#2205000000000000
(2037.321722) 0 7A6#2300B4F501003407
(2037.324737) 0 7A6#2402007100000007
(2037.328544) 0 7A6#2500000000000000
(2037.330711) 0 7A6#26D40102003C0702
(2037.334453) 0 7A6#2700720000000700
(2037.343119) 0 7A6#2800000000000026
(2037.345750) 0 7A6#2901020000000000
(2037.348741) 0 7A6#2A73000000070000
(2037.351741) 0 7A6#2B00000000003600
(2037.354740) 0 7A6#2C0200000000007B
(2037.357748) 0 7A6#2D00000007000000
(2037.360740) 0 7A6#2E00000000C6F501
(2037.363747) 0 7A6#2F00000000006100
(2037.367585) 0 7A6#2000000700000000
(2037.369744) 0 7A6#2100000064F70100
(2037.372744) 0 7A6#2200000000620000
(2037.375751) 0 7A6#2300070000000000
(2037.378750) 0 7A6#240000D4FF010000
(2037.381758) 0 7A6#2500000067000000
(2037.384749) 0 7A6#2607000000000000
(2037.387724) 0 7A6#270038F301002C07
(2037.390755) 0 7A6#2802006800000007
(2037.393770) 0 7A6#2900000000000000
(2037.397482) 0 7A6#2A4A080200440702
(2037.399760) 0 7A6#2B00740000000600
(2037.402768) 0 7A6#2C000000000000BE
(2037.405776) 0 7A6#2DFC010000000000
(2037.408742) 0 7A6#2E76000000060000
(2037.411757) 0 7A6#2F0000000000ACFC
(2037.414772) 0 7A6#2001000000000000
(2037.417563) 0 7AE#037F367800000000
(2037.418522) 0 7AE#037F367800000000
(2037.426497) 0 7AE#0176000000000000

(2037.455116) 0 7A6#10E1360000000077
(2037.456140) 0 7AE#3000010000000000
(2037.457764) 0 7A6#2100000006000000
(2037.460756) 0 7A6#22000000009AFC01
(2037.463763) 0 7A6#2300000000006E00
(2037.467578) 0 7A6#2400000700000000
(2037.469745) 0 7A6#25000000D2FC0100
(2037.472768) 0 7A6#26000000006F0000
(2037.475768) 0 7A6#2700050000000000
(2037.478774) 0 7A6#2800000AF8010024
(2037.481749) 0 7A6#29070200C5000000
(2037.484773) 0 7A6#2A07000000000000
(2037.487740) 0 7A6#2B0024FC01001407
(2037.490756) 0 7A6#2C0200F100000007
(2037.493771) 0 7A6#2D00000000000000
(2037.496738) 0 7A6#2EA2F501001C0702
(2037.499778) 0 7A6#2F00FFFFFFFFFFFF
(2037.502785) 0 7A6#20FFFFFFFFFFFFFF
(2037.505792) 0 7A6#21FFFFFF0401FFFF
(2037.508766) 0 7A6#2203FFFFFF02FFFF
(2037.511782) 0 7A6#23FFFFFFFFFFFF0A
(2037.514757) 0 7A6#240BFFFFFFFF0C0D
(2037.517788) 0 7A6#25FFFFFFFFFF1112
(2037.520755) 0 7A6#26FF0607080EFF0F
(2037.523770) 0 7A6#2710FFFFFF09FFFF
(2037.527561) 0 7A6#2800FFFFFFFFFFFF
(2037.529777) 0 7A6#2913FFFFFFFFFFFF
(2037.532784) 0 7A6#2AFFFFFFFFFFFFFF
(2037.537644) 0 7A6#2BFFFFFFFFFFFFFF
(2037.540602) 0 7A6#2CFFFFFFFFFFFF05
(2037.542776) 0 7A6#2DFFFFFFFFFFFFFF
(2037.545792) 0 7A6#2EFFFFFFFFFFFFFF
(2037.548791) 0 7A6#2FFFFF14FFFFFFFF
(2037.551806) 0 7A6#20FFFF0000000000
(2037.554542) 0 7AE#037F367800000000
(2037.555501) 0 7AE#037F367800000000
(2037.562324) 0 7AE#0176000000000000

(2037.595342) 0 7A6#10E136FFFFFFFFFF
(2037.596366) 0 7AE#3000010000000000
(2037.597758) 0 7A6#21FFFFFF01270700
(2037.600765) 0 7A6#22E4030000E30300
(2037.603756) 0 7A6#2300E3030000E203
(2037.607386) 0 7A6#240000E1030000E0
(2037.609786) 0 7A6#25030000E0030000
(2037.612769) 0 7A6#26DF030000DE0300
(2037.615777) 0 7A6#2700DD030000DD03
(2037.618759) 0 7A6#280000DC030000DB
(2037.621774) 0 7A6#29030000DA030000
(2037.624750) 0 7A6#2AD9030000D80300
(2037.628484) 0 7A6#2B00D7030000D603
(2037.630772) 0 7A6#2C0000D5030000D4
(2037.634651) 0 7A6#2D030000D3030000
(2037.637474) 0 7A6#2ED2030000D10300
(2037.639770) 0 7A6#2F00D0030000CF03
(2037.642785) 0 7A6#200000CE030000CD
(2037.645784) 0 7A6#21030000CC030000
(2037.648764) 0 7A6#22CA030000C90300
(2037.651764) 0 7A6#2300C8030000C703
(2037.654771) 0 7A6#240000C5030000C4
(2037.659216) 0 7A6#25030000C3030000
(2037.661792) 0 7A6#26C1030000C00300
(2037.664791) 0 7A6#2700BF030000BD03
(2037.667798) 0 7A6#280000BC030000BA
(2037.670773) 0 7A6#29030000B9030000
(2037.673772) 0 7A6#2AB7030000B60300
(2037.677499) 0 7A6#2B00B4030000B203
(2037.679779) 0 7A6#2C0000B1030000AF
(2037.682794) 0 7A6#2D030000AD030000
(2037.685786) 0 7A6#2EAC030000AA0300
(2037.688769) 0 7A6#2F00A8030000A603
(2037.691832) 0 7A6#2000000000000000
(2037.694536) 0 7AE#037F367800000000
(2037.695495) 0 7AE#037F367800000000
(2037.704244) 0 7AE#0176000000000000

(2037.728505) 0 7A6#10E136A4030000A2
(2037.729528) 0 7AE#3000010000000000
(2037.730792) 0 7A6#21030000A0030000
(2037.734094) 0 7A6#229F0300009C0300
(2037.737892) 0 7A6#23009A0300009803
(2037.740842) 0 7A6#2400009603000094
(2037.743840) 0 7A6#2503000092030000
(2037.748788) 0 7A6#26900300008E0300
(2037.752755) 0 7A6#27008B0300008903
(2037.755795) 0 7A6#2800008703000085
(2037.758794) 0 7A6#2903000082030000
(2037.761794) 0 7A6#2A800300007D0300
(2037.764769) 0 7A6#2B007B0300007803
(2037.767816) 0 7A6#2C00007603000073
(2037.770799) 0 7A6#2D03000070030000
(2037.773782) 0 7A6#2E6E0300006B0300
(2037.777518) 0 7A6#2F00680300006603
(2037.779821) 0 7A6#2000006303000060
(2037.782796) 0 7A6#210300005D030000
(2037.785780) 0 7A6#225B030000580300
(2037.788788) 0 7A6#2300550300005203
(2037.791795) 0 7A6#2400004F0300004C
(2037.794802) 0 7A6#2503000048030000
(2037.797785) 0 7A6#2645030000420300
(2037.800808) 0 7A6#27003F0300003C03
(2037.803800) 0 7A6#2800003903000035
(2037.807534) 0 7A6#2903000032030000
(2037.809790) 0 7A6#2A2F0300002B0300
(2037.812797) 0 7A6#2B00280300002503
(2037.815805) 0 7A6#2C0000210300001E
(2037.818804) 0 7A6#2D0300001A030000
(2037.821787) 0 7A6#2E17030000130300
(2037.824802) 0 7A6#2F000F0300000C03
(2037.827842) 0 7A6#2000000000000000
(2037.829537) 0 7AE#037F367800000000
(2037.830496) 0 7AE#037F367800000000
(2037.838318) 0 7AE#0176000000000000

(2037.882950) 0 7A6#10E1360803000005
(2037.884934) 0 7AE#3000010000000000
(2037.886885) 0 7A6#2103000001030000
(2037.889820) 0 7A6#22FD020000F90200
(2037.892804) 0 7A6#2300F6020000F202
(2037.895811) 0 7A6#240000EE020000EA
(2037.898803) 0 7A6#25020000E6020000
(2037.901802) 0 7A6#26E2020000DE0200
(2037.904810) 0 7A6#2700DA020000D602
(2037.907808) 0 7A6#280000D2020000CE
(2037.910816) 0 7A6#29020000CA020000
(2037.913791) 0 7A6#2AC6020000C20200
(2037.917526) 0 7A6#2B00BE020000BA02
(2037.919822) 0 7A6#2C0000B6020000B2
(2037.922829) 0 7A6#2D020000AD020000
(2037.925812) 0 7A6#2EA9020000A50200
(2037.928804) 0 7A6#2F00A10200009D02
(2037.931827) 0 7A6#2000009802000094
(2037.935170) 0 7A6#2102000090020000
(2037.938032) 0 7A6#228C020000870200
(2037.940973) 0 7A6#2300830200007F02
(2037.943804) 0 7A6#2400007A02000076
(2037.946827) 0 7A6#2502000072020000
(2037.949810) 0 7A6#266D020000690200
(2037.952818) 0 7A6#2700650200006002
(2037.955833) 0 7A6#2800005C02000058
(2037.958825) 0 7A6#2902000053020000
(2037.961808) 0 7A6#2A4F0200004B0200
(2037.964816) 0 7A6#2B00460200004202
(2037.967862) 0 7A6#2C00003D02000039
(2037.970830) 0 7A6#2D02000035020000
(2037.974669) 0 7A6#2E300200002C0200
(2037.977475) 0 7A6#2F00280200002302
(2037.979858) 0 7A6#2000000000000000
(2037.982530) 0 7AE#037F367800000000
(2037.983488) 0 7AE#037F367800000000
(2037.991320) 0 7AE#0176000000000000

(2038.016516) 0 7A6#10E1361F0200001B
(2038.017540) 0 7AE#3000010000000000
(2038.018828) 0 7A6#2102000016020000
(2038.021819) 0 7A6#22120200000E0200
(2038.024842) 0 7A6#2300090200000502
(2038.027848) 0 7A6#24000001020000FD
(2038.030840) 0 7A6#25010000F8010000
(2038.033824) 0 7A6#26F4010000F00100
(2038.036823) 0 7A6#2700EC010000E701
(2038.039838) 0 7A6#280000E3010000DF
(2038.042830) 0 7A6#29010000DB010000
(2038.045821) 0 7A6#2AD7010000D20100
(2038.048828) 0 7A6#2B00CE010000CA01
(2038.051836) 0 7A6#2C0000C6010000C2
(2038.054835) 0 7A6#2D010000BE010000
(2038.057826) 0 7A6#2EBA010000B60100
(2038.060834) 0 7A6#2F00B2010000AE01
(2038.063825) 0 7A6#200000AA010000A6
(2038.068495) 0 7A6#21010000A2010000
(2038.070839) 0 7A6#229E0100009A0100
(2038.073814) 0 7A6#2300960100009201
(2038.077468) 0 7A6#2400008F0100008B
(2038.079836) 0 7A6#2501000087010000
(2038.082827) 0 7A6#2683010000800100
(2038.086386) 0 7A6#27007C0100007801
(2038.088832) 0 7A6#2800007501000071
(2038.091840) 0 7A6#290100006E010000
(2038.094816) 0 7A6#2A6A010000670100
(2038.097831) 0 7A6#2B00630100006001
(2038.100846) 0 7A6#2C00005C01000059
(2038.103846) 0 7A6#2D01000055010000
(2038.107492) 0 7A6#2E520100004F0100
(2038.109836) 0 7A6#2F004B0100004801
(2038.112892) 0 7A6#2000000000000000
(2038.115523) 0 7AE#037F367800000000
(2038.116482) 0 7AE#037F367800000000
(2038.124318) 0 7AE#0176000000000000

(2038.144182) 0 7A6#10E1364501000041
(2038.145205) 0 7AE#3000010000000000
(2038.146852) 0 7A6#210100003E010000
(2038.149836) 0 7A6#223B010000380100
(2038.152852) 0 7A6#2300350100003201
(2038.155859) 0 7A6#2400002E0100002B
(2038.161714) 0 7A6#2501000028010000
(2038.163834) 0 7A6#2625010000220100
(2038.169479) 0 7A6#27001F0100001C01
(2038.171863) 0 7A6#2800001901000017
(2038.174854) 0 7A6#2901000014010000
(2038.177836) 0 7A6#2A110100000E0100
(2038.180860) 0 7A6#2B000B0100000801
(2038.183859) 0 7A6#2C00000601000003
(2038.186866) 0 7A6#2D01000000010000
(2038.189858) 0 7A6#2EFE000000FB0000
(2038.192850) 0 7A6#2F00F8000000F600
(2038.195857) 0 7A6#200000F3000000F1
(2038.198856) 0 7A6#2100000020202020
(2038.201848) 0 7A6#2220202020002020
(2038.204855) 0 7A6#2320202020202020
(2038.207846) 0 7A6#2420202020202020
(2038.210862) 0 7A6#2520202020202020
(2038.213846) 0 7A6#2620202020202020
(2038.217508) 0 7A6#2720202020002020
(2038.219851) 0 7A6#2820202020202000
(2038.222866) 0 7A6#2920200020202000
(2038.225850) 0 7A6#2A20202020202045
(2038.228840) 0 7A6#2B6D707479202020
(2038.231880) 0 7A6#2C20200020200020
(2038.234847) 0 7A6#2D20202020202020
(2038.238454) 0 7A6#2E20202020202020
(2038.241452) 0 7A6#2F20202020202020
(2038.244466) 0 7A6#2020200000000000
(2038.246529) 0 7AE#037F367800000000
(2038.247488) 0 7AE#037F367800000000
(2038.255310) 0 7AE#0176000000000000

(2038.286233) 0 7A6#10E1362020202020
(2038.288216) 0 7AE#3000010000000000
(2038.289343) 0 7A6#2120202000202020
(2038.291862) 0 7A6#2220202020202020
(2038.294870) 0 7A6#2320202020202020
(2038.297862) 0 7A6#2420202020202020
(2038.300869) 0 7A6#2520202020202020
(2038.303868) 0 7A6#26002E002E002020
(2038.307491) 0 7A6#270020202020456D
(2038.309834) 0 7A6#2870747920202020
(2038.312858) 0 7A6#2920005354002020
(2038.315873) 0 7A6#2A2020202000414D
(2038.318856) 0 7A6#2B20202020002020
(2038.321880) 0 7A6#2C20202020202000
(2038.324863) 0 7A6#2D414D2041530020
(2038.327870) 0 7A6#2E20202020202020
(2038.330829) 0 7A6#2F00464D20312020
(2038.333852) 0 7A6#2000464D20322020
(2038.337338) 0 7A6#2100464D20415300
(2038.340232) 0 7A6#2252445300202020
(2038.343111) 0 7A6#2320202020200020
(2038.346004) 0 7A6#2400456D65726765
(2038.348844) 0 7A6#256E637920422763
(2038.351835) 0 7A6#2661737420005072
(2038.354842) 0 7A6#2765737320274558
(2038.357825) 0 7A6#2849542720627574
(2038.360832) 0 7A6#29746F6E20746F20
(2038.363856) 0 7A6#2A73746F70002000
(2038.367502) 0 7A6#2B54726166666963
(2038.369829) 0 7A6#2C20416E6E6F756E
(2038.372836) 0 7A6#2D63652E2E2E0050
(2038.375828) 0 7A6#2E72657373202745
(2038.378844) 0 7A6#2F58495427206275
(2038.381891) 0 7A6#2074740000000000
(2038.385522) 0 7AE#037F367800000000
(2038.386481) 0 7AE#037F367800000000
(2038.394312) 0 7AE#0176000000000000

(2038.416092) 0 7A6#10E1366F6E20746F
(2038.417115) 0 7AE#3000010000000000
(2038.418851) 0 7A6#212073746F700020
(2038.421850) 0 7A6#220050726F677261
(2038.424850) 0 7A6#236D205479706573
(2038.427857) 0 7A6#2420004E6F742046
(2038.430856) 0 7A6#256F756E64002020
(2038.433880) 0 7A6#2620202020202020
(2038.436879) 0 7A6#2720202020202020
(2038.439886) 0 7A6#2820202020202020
(2038.442870) 0 7A6#2920202020202020
(2038.445894) 0 7A6#2A20202020202020
(2038.448877) 0 7A6#2B20202020202020
(2038.451892) 0 7A6#2C20200020202020
(2038.454875) 0 7A6#2D20202020202020
(2038.457882) 0 7A6#2E20202020202020
(2038.460890) 0 7A6#2F20202020202020
(2038.463881) 0 7A6#2020202020202020
(2038.469478) 0 7A6#2120202020202020
(2038.471870) 0 7A6#2220202020202020
(2038.474844) 0 7A6#23004E6577730043
(2038.477836) 0 7A6#24757272656E7420
(2038.480835) 0 7A6#2541666661697273
(2038.483850) 0 7A6#2600496E666F726D
(2038.486850) 0 7A6#276174696F6E0053
(2038.489865) 0 7A6#28706F7274004564
(2038.492833) 0 7A6#2975636174696F6E
(2038.495856) 0 7A6#2A004472616D6100
(2038.498840) 0 7A6#2B43756C74757265
(2038.501847) 0 7A6#2C00536369656E63
(2038.504846) 0 7A6#2D65005661726965
(2038.507877) 0 7A6#2E6400506F70204D
(2038.510844) 0 7A6#2F7573696300526F
(2038.513908) 0 7A6#20636B0000000000
(2038.516523) 0 7AE#037F367800000000
(2038.517482) 0 7AE#037F367800000000
(2038.524304) 0 7AE#0176000000000000

(2038.567950) 0 7A6#10E136204D757369
(2038.568974) 0 7AE#3000010000000000
(2038.570853) 0 7A6#2163004561737920
(2038.573845) 0 7A6#224C697374656E69
(2038.577396) 0 7A6#236E67204D757369
(2038.579875) 0 7A6#2463004C69676874
(2038.582850) 0 7A6#2520436C61737369
(2038.586314) 0 7A6#2663616C00536572
(2038.589199) 0 7A6#27696F757320436C
(2038.591846) 0 7A6#286173736963616C
(2038.594853) 0 7A6#29004F7468657220
(2038.597860) 0 7A6#2A4D757369630057
(2038.600860) 0 7A6#2B65617468657200
(2038.603851) 0 7A6#2C46696E616E6365
(2038.607434) 0 7A6#2D004368696C6472
(2038.609873) 0 7A6#2E656E2773205072
(2038.612872) 0 7A6#2F6F6772616D7300
(2038.615864) 0 7A6#20536F6369616C20
(2038.618855) 0 7A6#2141666661697273
(2038.621862) 0 7A6#220052656C696769
(2038.624886) 0 7A6#236F6E0050686F6E
(2038.627876) 0 7A6#246520496E005472
(2038.631571) 0 7A6#256176656C004C65
(2038.634578) 0 7A6#266973757265004A
(2038.636865) 0 7A6#27617A7A204D7573
(2038.639856) 0 7A6#28696300436F756E
(2038.642872) 0 7A6#29747279204D7573
(2038.645872) 0 7A6#2A6963004E617469
(2038.648862) 0 7A6#2B6F6E616C204D75
(2038.651869) 0 7A6#2C736963004F6C64
(2038.654860) 0 7A6#2D696573204D7573
(2038.660008) 0 7A6#2E696300466F6C6B
(2038.662856) 0 7A6#2F204D7573696300
(2038.665928) 0 7A6#20446F0000000000
(2038.668518) 0 7AE#037F367800000000
(2038.670484) 0 7AE#037F367800000000
(2038.676306) 0 7AE#0176000000000000

(2038.712332) 0 7A6#10E13663756D656E
(2038.713354) 0 7AE#3000010000000000
(2038.714882) 0 7A6#217461727900416C
(2038.717905) 0 7A6#2261726D20546573
(2038.720889) 0 7A6#237400416C61726D
(2038.723944) 0 7A6#2400002000202020
(2038.728389) 0 7A6#2520202020202020
(2038.730893) 0 7A6#260050484F4E4500
(2038.733876) 0 7A6#2752656164696E67
(2038.736908) 0 7A6#2820446973630050
(2038.740362) 0 7A6#296C656173652057
(2038.743184) 0 7A6#2A6169742E2E2E00
(2038.746134) 0 7A6#2B20202020202020
(2038.749124) 0 7A6#2C20202020202020
(2038.752106) 0 7A6#2D20202020202020
(2038.755048) 0 7A6#2E20202020202020
(2038.758022) 0 7A6#2F20202000200020
(2038.760885) 0 7A6#2020200054726163
(2038.763924) 0 7A6#216B202000202020
(2038.768460) 0 7A6#2200202020202020
(2038.770923) 0 7A6#2320202020202020
(2038.773938) 0 7A6#2420202020202020
(2038.777434) 0 7A6#2520002020202020
(2038.779920) 0 7A6#2620202020202020
(2038.782936) 0 7A6#2720202020202000
(2038.785928) 0 7A6#2820202020202020
(2038.788943) 0 7A6#2920002020202020
(2038.791926) 0 7A6#2A00202020004175
(2038.794886) 0 7A6#2B78696C69617279
(2038.797901) 0 7A6#2C00417578696C69
(2038.800893) 0 7A6#2D61727900417564
(2038.803908) 0 7A6#2E696F204F666600
(2038.807459) 0 7A6#2F2000417564696F
(2038.809962) 0 7A6#20204F0000000000
(2038.812513) 0 7AE#037F367800000000
(2038.813472) 0 7AE#037F367800000000
(2038.821296) 0 7AE#0176000000000000

(2038.853284) 0 7A6#10E1366666002000
(2038.854308) 0 7AE#3000010000000000
(2038.855955) 0 7A6#21000000FFFFFF00
(2038.858962) 0 7A6#2200000000020000
(2038.861946) 0 7A6#230000000000485B
(2038.864970) 0 7A6#240000F800000000
(2038.868000) 0 7A6#2500000000000000
(2038.870968) 0 7A6#2600000000000000
(2038.873967) 0 7A6#2700000000000000
(2038.877447) 0 7A6#28000003E0E00000
(2038.879967) 0 7A6#2900000000000000
(2038.882974) 0 7A6#2A00000000000000
(2038.885973) 0 7A6#2B00000000000000
(2038.888956) 0 7A6#2C0000000000E0C3
(2038.891971) 0 7A6#2DFFFFFFFFFFFFFF
(2038.894970) 0 7A6#2EFFFFFFFFFFFFFF
(2038.897986) 0 7A6#2FFFFFFFFFFFFFFF
(2038.900970) 0 7A6#20FFFFFFFFFFFFF8
(2038.903953) 0 7A6#21608F8180FFFFFF
(2038.908438) 0 7A6#22FFFFFFFFFFFFFF
(2038.910974) 0 7A6#23FFFFFFFFFFFFFF
(2038.914676) 0 7A6#24FFFFFFFFFFFFFF
(2038.916956) 0 7A6#25FFFE209F00807F
(2038.919972) 0 7A6#26FFFFFFFFFFFFFF
(2038.922979) 0 7A6#27FFFFFFFFFFFFFF
(2038.925978) 0 7A6#28FFFFFFFFFFFFFF
(2038.928961) 0 7A6#29FFFFFFFF201E3C
(2038.931960) 0 7A6#2A9E3FFFFFFFFFFF
(2038.934976) 0 7A6#2BFFFFFFFFFFFFFF
(2038.937982) 0 7A6#2CFFFFFFFFFFFFFF
(2038.941436) 0 7A6#2DFFFFFFFFFFFF00
(2038.944314) 0 7A6#2E3E7F9F3FFFFFFF
(2038.948296) 0 7A6#2FFFFFFFFFFFFFFF
(2038.950983) 0 7A6#20FFFF0000000000
(2038.953510) 0 7AE#037F367800000000
(2038.954469) 0 7AE#037F367800000000
(2038.960292) 0 7AE#0176000000000000

(2038.996225) 0 7A6#10E136FFFFFFFFFF
(2038.997248) 0 7AE#3000010000000000
(2038.998976) 0 7A6#21FFFFFFFFFFFFFF
(2039.001959) 0 7A6#22FF803E7F9F3FFF
(2039.004990) 0 7A6#23FFFFFFFFFFFFFF
(2039.008500) 0 7A6#24FFFFFFFFFFFFFF
(2039.010988) 0 7A6#25FFFFFFFFFFFFFF
(2039.013987) 0 7A6#26FFFFFF803E7F9F
(2039.017474) 0 7A6#273FFFFFFFFFFFFF
(2039.019994) 0 7A6#28FFFFFFFFFFFFFF
(2039.023009) 0 7A6#29FFFFFFFFFFFFFF
(2039.025985) 0 7A6#2AFFFFFFFFFF803E
(2039.028975) 0 7A6#2B7F9F3FFFFFFFFF
(2039.031998) 0 7A6#2CFFFFFFFFFFFFFF
(2039.034982) 0 7A6#2DFFFFFFFFFFFFFF
(2039.037982) 0 7A6#2EFFFFFFFFFFFFFF
(2039.040965) 0 7A6#2F803E3C9E3FFFFF
(2039.044004) 0 7A6#20FFFFFFFFFFFFFF
(2039.046988) 0 7A6#21FFFFFFFFFFFFFF
(2039.049996) 0 7A6#22FFFFFFFFFFFFFF
(2039.052971) 0 7A6#23FFFF803F00807F
(2039.055986) 0 7A6#24FFFFFFFFFFFFFF
(2039.058986) 0 7A6#25FFFFFFFFFFFFFF
(2039.061985) 0 7A6#26FFFFFFFFFFFFFF
(2039.064984) 0 7A6#27FFFFFFFF803F81
(2039.068462) 0 7A6#2880FFFFFFFFFFFF
(2039.071014) 0 7A6#29FFFFFFFFFFFFFF
(2039.074006) 0 7A6#2AFFFFFFFFFFFFFF
(2039.078371) 0 7A6#2BFFFFFFFFFFFF80
(2039.080994) 0 7A6#2C3FFFFFFFFFFFFF
(2039.083994) 0 7A6#2DFFFFFFFFFFFFFF
(2039.087376) 0 7A6#2EFFFFFFFFFFFFFF
(2039.090015) 0 7A6#2FFFFFFFFFFFFFFF
(2039.093014) 0 7A6#20FF800000000000
(2039.096508) 0 7AE#037F367800000000
(2039.097467) 0 7AE#037F367800000000
(2039.102290) 0 7AE#0176000000000000
(2039.138564) 0 7A6#10E1360000000000
(2039.139587) 0 7AE#3000010000000000
(2039.141018) 0 7A6#2100000000000000
(2039.144425) 0 7A6#2200000000000000
(2039.147326) 0 7A6#2300000000000000
(2039.150286) 0 7A6#24000000000000EB
(2039.152988) 0 7A6#25000F001E000100
(2039.155956) 0 7A6#265C5B0000505B00
(2039.160504) 0 7A6#270000000000FFFF
(2039.163000) 0 7A6#28FF000000000002
(2039.165999) 0 7A6#2900000000000000
(2039.168974) 0 7A6#2A345D0000C0C07F
(2039.171998) 0 7A6#2BFFE080403FFFE0
(2039.174997) 0 7A6#2C1E4F1FFFE03FCF
(2039.177987) 0 7A6#2D9FFFE03FCF9FFF
(2039.181086) 0 7A6#2EE03FCF9FFFE03F
(2039.183980) 0 7A6#2FCF9FFFE01E4F1F
(2039.188418) 0 7A6#20FFE080403FFFE0
(2039.191000) 0 7A6#21C0C07FFFE00000
(2039.193984) 0 7A6#2223000A00050001
(2039.196960) 0 7A6#2300485D00003C5D
(2039.200023) 0 7A6#24000000000000FF
(2039.203014) 0 7A6#25FFFF0000000000
(2039.206014) 0 7A6#2602000000000000
(2039.208988) 0 7A6#2700905D0000FC0F
(2039.212012) 0 7A6#2801E7CFFB80FC07
(2039.214963) 0 7A6#2900E38FF980FCF3
(2039.217986) 0 7A6#2A3C638FF880FCF3
(2039.220978) 0 7A6#2B3E610FFA00FC07
(2039.223978) 0 7A6#2C3E610FFB00FC0F
(2039.227368) 0 7A6#2D3E644FFB00FCE7
(2039.229952) 0 7A6#2E3E644FC380FCF3
(2039.232976) 0 7A6#2F3C66CF8380FCF3
(2039.236015) 0 7A6#2000E60000000000
(2039.238502) 0 7AE#037F367800000000
(2039.239461) 0 7AE#037F367800000000
(2039.248521) 0 7AE#0176000000000000

(2039.280090) 0 7A6#10E136CF8380FCF3
(2039.281114) 0 7AE#3000010000000000
(2039.282994) 0 7A6#2101E7CFC7800000
(2039.286400) 0 7A6#2231000A00070001
(2039.288984) 0 7A6#2300A45D0000985D
(2039.292039) 0 7A6#24000000000000FF
(2039.295031) 0 7A6#25FFFF0000000000
(2039.298030) 0 7A6#2602000000000000
(2039.301014) 0 7A6#2700005E0000FFFF
(2039.304014) 0 7A6#28FFFFFFFFFFF0FF
(2039.308442) 0 7A6#29FFFFFFFFFFFFF0
(2039.311034) 0 7A6#2AFFFFFFFFFFFFFF
(2039.314033) 0 7A6#2BF0FFFFFFFFFFFF
(2039.317368) 0 7A6#2CFFF0FFFFFFFFFF
(2039.320032) 0 7A6#2DFFFFF0FFFFFFFF
(2039.323015) 0 7A6#2EFFFFFFF0FFFFFF
(2039.326038) 0 7A6#2FFFFFFFFFF0FFFF
(2039.329037) 0 7A6#20FFFFFFFFFFF0FF
(2039.332020) 0 7A6#21FFFFFFFFFFFFF0
(2039.335044) 0 7A6#22FFFFFFFFFFFFFF
(2039.338994) 0 7A6#23F03C000A000800
(2039.342010) 0 7A6#240100145E000008
(2039.345465) 0 7A6#255E000000000000
(2039.348358) 0 7A6#26FFFFFF00000000
(2039.351324) 0 7A6#2700020000000000
(2039.354028) 0 7A6#280000785E0000FF
(2039.356987) 0 7A6#2903C0F00FFB80FF
(2039.360018) 0 7A6#2A01C0700FF980FF
(2039.362986) 0 7A6#2B3CCE3E7FF880FF
(2039.365993) 0 7A6#2C3CCF3E7FFA00FF
(2039.369014) 0 7A6#2D01CE3E7FFB00FF
(2039.372006) 0 7A6#2E03C07E7FFB00FF
(2039.374988) 0 7A6#2F39C0FE7FC380FF
(2039.378026) 0 7A6#203CCF0000000000
(2039.380498) 0 7AE#037F367800000000
(2039.381458) 0 7AE#037F367800000000
(2039.388289) 0 7AE#0176000000000000
(2039.421708) 0 7A6#10E136FE7F8380FF
(2039.422732) 0 7AE#3000010000000000
(2039.424004) 0 7A6#213CCFFE7F8380FF
(2039.428369) 0 7A6#223CCFFE7FC78000
(2039.431024) 0 7A6#230031000A000700
(2039.434008) 0 7A6#2401008C5E000080
(2039.437032) 0 7A6#255E000000000000
(2039.440039) 0 7A6#26FFFFFF00000000
(2039.443038) 0 7A6#2700020000000000
(2039.446006) 0 7A6#280000E85E0000E1
(2039.449021) 0 7A6#29C0DEC0BE407D80
(2039.452004) 0 7A6#2A738073807F80BF
(2039.455012) 0 7A6#2B40DEC0E1C00A00
(2039.458043) 0 7A6#2C0A0002000100FC
(2039.461010) 0 7A6#2D5E0000F05E0000
(2039.464050) 0 7A6#2E00000000FFFFFF
(2039.469454) 0 7A6#2F00000000000200
(2039.472069) 0 7A6#2000000000000024
(2039.475013) 0 7A6#215F0000E1C0DEC0
(2039.478011) 0 7A6#229F406F80738073
(2039.481018) 0 7A6#23807F80BF40DEC0
(2039.484034) 0 7A6#24E1C00A000A0002
(2039.487424) 0 7A6#25000100385F0000
(2039.490040) 0 7A6#262C5F0000000000
(2039.493047) 0 7A6#2700FFFFFF000000
(2039.496047) 0 7A6#2800000200000000
(2039.499038) 0 7A6#29000000605F0000
(2039.502006) 0 7A6#2AE1C0DEC0BF407F
(2039.505013) 0 7A6#2B80738073806F80
(2039.508011) 0 7A6#2C9F40DEC0E1C00A
(2039.511058) 0 7A6#2D000A0002000100
(2039.514026) 0 7A6#2E745F0000685F00
(2039.517057) 0 7A6#2F0000000000FFFF
(2039.520057) 0 7A6#20FF000000000000
(2039.522497) 0 7AE#037F367800000000
(2039.523456) 0 7AE#037F367800000000
(2039.531286) 0 7AE#0176000000000000
(2039.580024) 0 7A6#10E1360000000002
(2039.581048) 0 7AE#3000010000000000
(2039.583079) 0 7A6#2100000000000000
(2039.586310) 0 7A6#229C5F0000E1C0DE
(2039.589021) 0 7A6#23C0BF407F807380
(2039.592028) 0 7A6#2473807D80BE40DE
(2039.595036) 0 7A6#25C0E1C00A000A00
(2039.598051) 0 7A6#2602000100B05F00
(2039.601050) 0 7A6#2700A45F00000000
(2039.604058) 0 7A6#280000FFFFFF0000
(2039.608431) 0 7A6#2900000002000000
(2039.611047) 0 7A6#2A00000000D85F00
(2039.614022) 0 7A6#2B00FC0F03C03FC3
(2039.617046) 0 7A6#2C80FC0701C03FBD
(2039.620029) 0 7A6#2D80FCF338F9FF7E
(2039.623044) 0 7A6#2E80FCF33CF9FEFF
(2039.626036) 0 7A6#2F00FC0738F9FEE7
(2039.629042) 0 7A6#2000FC0F01F9FEE7
(2039.632049) 0 7A6#2100FCE703F9FEFF
(2039.635032) 0 7A6#2200FCF33FF9FF7E
(2039.638047) 0 7A6#2380FCF33FF9FFBD
(2039.641038) 0 7A6#2480FCF33FF9FFC3
(2039.644070) 0 7A6#2580000031000A00
(2039.647054) 0 7A6#2607000100EC5F00
(2039.650061) 0 7A6#2700E05F00000000
(2039.653069) 0 7A6#280000FFFFFF0000
(2039.656068) 0 7A6#2900000002000000
(2039.660880) 0 7A6#2A00000000486000
(2039.663064) 0 7A6#2B00FFFFFFFFFFFF
(2039.666087) 0 7A6#2CFFFFFFFFFFFFFF
(2039.669068) 0 7A6#2DFFFFFFFFFFFFFF
(2039.672068) 0 7A6#2EFFFFFFFFFFFFFF
(2039.675099) 0 7A6#2FFFFFFFFFFFFFFF
(2039.678082) 0 7A6#20FFFF0000000000
(2039.681497) 0 7AE#037F367800000000
(2039.682456) 0 7AE#037F367800000000
(2039.689279) 0 7AE#0176000000000000
(2039.735060) 0 7A6#10E136FFFFFFFFFF
(2039.737043) 0 7AE#3000010000000000
(2039.738250) 0 7A6#21FFFFFFFFFFFFFF
(2039.741090) 0 7A6#22FFFFFFFFFFFFFF
(2039.744089) 0 7A6#23FFFFFFFFFFFFFF
(2039.747088) 0 7A6#24FFFFFFFFFFFFFF
(2039.750077) 0 7A6#25FFFFFFFFFFFF00
(2039.754026) 0 7A6#2628000F00050001
(2039.757064) 0 7A6#27005C6000005060
(2039.760094) 0 7A6#28000000000000FF
(2039.763100) 0 7A6#29FFFF0000000000
(2039.766074) 0 7A6#2A02000000000000
(2039.769064) 0 7A6#2B00BC600000F81F
(2039.772096) 0 7A6#2CFF9FFFFFFFFFFF
(2039.775079) 0 7A6#2DCF3FFFFFFFFF00
(2039.778070) 0 7A6#2EFF3FFFFFE0E3C7
(2039.781093) 0 7A6#2FFF9FFFFFFFFFFF
(2039.784076) 0 7A6#20CF3FFFFFFFFF00
(2039.787403) 0 7A6#213F3FFFFFE0CE73
(2039.790090) 0 7A6#22FF9FFFFFFFFFFF
(2039.793082) 0 7A6#23CFFFFFFFFFFF3F
(2039.796074) 0 7A6#241FFFFFFFE09E79
(2039.799088) 0 7A6#25FF9FFFFFFFFFFF
(2039.802072) 0 7A6#26CFFFFFFFFFFF3F
(2039.805071) 0 7A6#278FFFFFFFE0BFFD
(2039.808070) 0 7A6#28FF9FFFC1FE0FF0
(2039.811061) 0 7A6#294F3CC3FC13FF3F
(2039.814060) 0 7A6#2ACF3E0FF0603CFC
(2039.817092) 0 7A6#2BFF9FFF80FC07E0
(2039.820067) 0 7A6#2C0F3C81F803FF3F
(2039.823066) 0 7A6#2DE73C03E0207E7E
(2039.826058) 0 7A6#2EFF9FFF1C78E3C7
(2039.829040) 0 7A6#2F0F3C38F1C3FF3F
(2039.832088) 0 7A6#20E7380000000000
(2039.836326) 0 7AE#037F367800000000
(2039.838276) 0 7AE#037F367800000000
(2039.843283) 0 7AE#0176000000000000
(2039.877326) 0 7A6#10E136F1C7007E7E
(2039.878350) 0 7AE#3000010000000000
(2039.880077) 0 7A6#21FF9FFE3E39F38F
(2039.883060) 0 7A6#228F3C7CE3E3FF3F
(2039.886083) 0 7A6#23E739F98F807E7E
(2039.889066) 0 7A6#24FF9FFE7F3FF39F
(2039.892066) 0 7A6#25CF3CFCE7F3FF3F
(2039.895065) 0 7A6#26E7387F9FE07E7E
(2039.898096) 0 7A6#27FF9FFE7F3E039F
(2039.901080) 0 7A6#28CF3CFCE7F3FF3F
(2039.904079) 0 7A6#29E73C0F9FE03E7C
(2039.909339) 0 7A6#2AFF9FFE7F38039F
(2039.912058) 0 7A6#2BCF3CFCE7F3FF3F
(2039.915074) 0 7A6#2CE73F839FE0BE7D
(2039.918121) 0 7A6#2DFF9FFE7F31F39F
(2039.921064) 0 7A6#2ECF3CFCE7F3FF3F
(2039.924080) 0 7A6#2FCF3FF19FE09E39
(2039.927351) 0 7A6#20FF9FFE3E33E38F
(2039.930062) 0 7A6#218F3CFCE3E3FF3F
(2039.933061) 0 7A6#228F39F98F80CF73
(2039.936324) 0 7A6#23FF9FFF1C7183C7
(2039.939060) 0 7A6#240F3CFCF1C3FF3F
(2039.942051) 0 7A6#251F38F1C700E3C7
(2039.945098) 0 7A6#26FF800F80F811E0
(2039.948090) 0 7A6#270F3CFCF803FF00
(2039.952006) 0 7A6#283F3C03E020F81F
(2039.954956) 0 7A6#29FF800FC1FC39F0
(2039.957091) 0 7A6#2A4F3CFCFC13FF00
(2039.960114) 0 7A6#2BFF3E07F060FFFF
(2039.963122) 0 7A6#2CFFFFFFFFFFFFFF
(2039.966114) 0 7A6#2DFFFFFFE7F3FFFF
(2039.969119) 0 7A6#2EFFFFFFFFE0FFFF
(2039.972134) 0 7A6#2FFFFFFFFFFFFFFF
(2039.975134) 0 7A6#20FFFF0000000000
(2039.977484) 0 7AE#037F367800000000
(2039.978443) 0 7AE#037F367800000000
(2039.984274) 0 7AE#0176000000000000
(2040.016118) 0 7A6#10E136FFE3E3FFFF
(2040.017140) 0 7AE#3000010000000000
(2040.019651) 0 7A6#21FFFFFFFFE0FFFF
(2040.022130) 0 7A6#22FFFFFFFFFFFFFF
(2040.025146) 0 7A6#23FFFFFFF007FFFF
(2040.028360) 0 7A6#24FFFFFFFFE0FFFF
(2040.031128) 0 7A6#25FFFFFFFFFFFFFF
(2040.034127) 0 7A6#26FFFFFFF80FFFFF
(2040.037317) 0 7A6#27FFFFFFFFE0A300
(2040.040100) 0 7A6#28140015000100D0
(2040.043108) 0 7A6#29600000C4600000
(2040.046116) 0 7A6#2A00000000FFFFFF
(2040.049122) 0 7A6#2B00000000000200
(2040.052122) 0 7A6#2C00000000000088
(2040.055106) 0 7A6#2D620000F8000000
(2040.058121) 0 7A6#2E00000000000000
(2040.061120) 0 7A6#2F00000000000000
(2040.064160) 0 7A6#2000000000000000
(2040.067398) 0 7A6#2100000003E0E000
(2040.070142) 0 7A6#2200000000000000
(2040.073124) 0 7A6#2300000000000000
(2040.076132) 0 7A6#2400000000000000
(2040.079122) 0 7A6#25000000000000E0
(2040.082130) 0 7A6#26C3FFFFFFFFFFFF
(2040.085137) 0 7A6#27FFFFFFFFFFFFFF
(2040.089088) 0 7A6#28FFFFFFFFFFFFFF
(2040.092152) 0 7A6#29FFFFFFFFFFFFFF
(2040.095127) 0 7A6#2AF8608FFFFFFFFF
(2040.098126) 0 7A6#2BFFFFFFFFFFFFFF
(2040.101134) 0 7A6#2CFFFFFFFFFFFFFF
(2040.104133) 0 7A6#2DFFFFFFFFFFFFFF
(2040.107388) 0 7A6#2EFFFFFE209FFFFF
(2040.110155) 0 7A6#2FFFFFFFFFFFFFFF
(2040.113154) 0 7A6#20FFFF0000000000
(2040.117393) 0 7AE#037F367800000000
(2040.118352) 0 7AE#037F367800000000
(2040.125270) 0 7AE#0176000000000000
(2040.161266) 0 7A6#10E136FFFFFFFFFF
(2040.162288) 0 7AE#3000010000000000
(2040.164144) 0 7A6#21FFFFFFFFFFFFFF
(2040.167391) 0 7A6#22FFFFFFFFFF201F
(2040.170142) 0 7A6#23FFFFFFFFFFFFFF
(2040.173141) 0 7A6#24FFFFFFFFFFFFFF
(2040.176141) 0 7A6#25FFFFFFFFFFFFFF
(2040.179140) 0 7A6#26FFFFFFFFFFFFFF
(2040.182148) 0 7A6#27003FFFFFFFFFFF
(2040.185146) 0 7A6#28FFFFFFFFFFFFFF
(2040.188162) 0 7A6#29FFFFFFFFFFFFFF
(2040.191154) 0 7A6#2AFFFFFFFFFFFFFF
(2040.194145) 0 7A6#2BFFFF803FFFFFFF
(2040.197152) 0 7A6#2CFFFFFFFFFFFFFF
(2040.200152) 0 7A6#2DFFFFFFFFFFFFFF
(2040.203851) 0 7A6#2EFFFFFFFFFFFFFF
(2040.208790) 0 7A6#2FFFFFFFFF803FFF
(2040.211165) 0 7A6#20FFFFFFFFFFFFFF
(2040.214148) 0 7A6#21FFFFFFFFFFFFFF
(2040.217156) 0 7A6#22FFFFFFFFFFFFFF
(2040.220156) 0 7A6#23FFFFFFFFFFFF80
(2040.223148) 0 7A6#243FFFFFFFFFFFFF
(2040.226147) 0 7A6#25FFFFFFFFFFFFFF
(2040.229145) 0 7A6#26FFFFFFFFFFFFFF
(2040.232152) 0 7A6#27FFFFFFFFFFFFFF
(2040.235144) 0 7A6#28FF803FFFFFFFFF
(2040.238176) 0 7A6#29FFFFFFFFFFFFFF
(2040.241167) 0 7A6#2AFFFFFFFFFFFFFF
(2040.244150) 0 7A6#2BFFFFFFFFFFFFFF
(2040.247158) 0 7A6#2CFFFFFF803FFFFF
(2040.250172) 0 7A6#2DFFFFFFFFFFFFFF
(2040.253195) 0 7A6#2EFFFFFFFFFFFFFF
(2040.256224) 0 7A6#2FFFFFFFFFFFFFFF
(2040.259176) 0 7A6#20FFFF0000000000
(2040.261479) 0 7AE#037F367800000000
(2040.262439) 0 7AE#037F367800000000
(2040.268388) 0 7AE#0176000000000000
(2040.291001) 0 7A6#10E136FFFFFF803F
(2040.292025) 0 7AE#3000010000000000
(2040.293256) 0 7A6#21FFFFFFFFFFFFFF
(2040.296167) 0 7A6#22FFFFFFFFFFFFFF
(2040.299167) 0 7A6#23FFFFFFFFFFFFFF
(2040.302166) 0 7A6#24FFFFFFFFFFFFFF
(2040.305158) 0 7A6#25803FFFFFFFFFFF
(2040.308156) 0 7A6#26FFFFFFFFFFFFFF
(2040.311164) 0 7A6#27FFFFFFFFFFFFFF
(2040.314163) 0 7A6#28FFFFFFFFFFFFFF
(2040.317162) 0 7A6#29FFFF8000000000
(2040.320170) 0 7A6#2A00000000000000
(2040.323169) 0 7A6#2B00000000000000
(2040.326168) 0 7A6#2C00000000000000
(2040.329158) 0 7A6#2D00000000003FFF
(2040.332173) 0 7A6#2EFFFFFFFFFFFFFF
(2040.335188) 0 7A6#2FFFFFFFFFFFFFFF
(2040.339170) 0 7A6#20FFFFFFFFFFFFFF
(2040.342169) 0 7A6#21FFFFFFFFFFFF80
(2040.345169) 0 7A6#223FFFFFFFFFFFFF
(2040.348168) 0 7A6#23FFFFFFFFFFFFFF
(2040.351166) 0 7A6#24FFFFFFFFFFFFFF
(2040.355109) 0 7A6#25FFFFFFFFFFFFFF
(2040.358148) 0 7A6#26FF803FFFFFC0FF
(2040.361163) 0 7A6#27F3FFFFFFFFFFFF
(2040.364162) 0 7A6#28FFFFFFFFF83F80
(2040.367361) 0 7A6#297FFE3FE7FFFFFF
(2040.370176) 0 7A6#2AFFFFFF803FFFFF
(2040.373160) 0 7A6#2B1E3FF3FFFFFFFF
(2040.376160) 0 7A6#2CFFFFE7FFE7FFE0
(2040.379158) 0 7A6#2D0F801FFE1FE7FF
(2040.382166) 0 7A6#2EFFFFFFFFFF803F
(2040.385133) 0 7A6#2FFFFE739FF3FFFF
(2040.388196) 0 7A6#20FFFF0000000000
(2040.391474) 0 7AE#037F367800000000
(2040.392432) 0 7AE#037F367800000000
(2040.397263) 0 7AE#0176000000000000
(2040.419380) 0 7A6#10E136FFFFE7FFC7
(2040.420403) 0 7AE#3000010000000000
(2040.422154) 0 7A6#21FFC7C79F8FFE0F
(2040.425186) 0 7A6#22E7FFFFFFFFFFFF
(2040.428136) 0 7A6#23803FFFFCF3CFF3
(2040.431176) 0 7A6#24FFFFFFFFFFFFE7
(2040.434135) 0 7A6#25FF07FF8FE39FC7
(2040.437166) 0 7A6#26FE4FE7FFFFFFFF
(2040.440182) 0 7A6#27FFFF803FFFFDFF
(2040.443149) 0 7A6#28EFF3CC3F83FC1F
(2040.446148) 0 7A6#299981FF07FF9FF3
(2040.449164) 0 7A6#2A9FE7FE47E7E0F9
(2040.452180) 0 7A6#2BF1F3FFFF803FFF
(2040.455147) 0 7A6#2CF9E7E7F3C81F00
(2040.458169) 0 7A6#2DF80F8181FFE7FF
(2040.461144) 0 7A6#2E3FFF9FF3FE67E7
(2040.464168) 0 7A6#2FC079F1F3FFFF80
(2040.467358) 0 7A6#203FFFFBF3F7F3C3
(2040.470142) 0 7A6#218E3C71C787E7FF
(2040.473157) 0 7A6#22E7FF3FFF9FF3FE
(2040.476148) 0 7A6#2373E78E39F1F3FF
(2040.479162) 0 7A6#24FF803FFFFBF3F7
(2040.482138) 0 7A6#25F3C7CE7E63E39F
(2040.485169) 0 7A6#26E7FFE7FF3FFF9F
(2040.488120) 0 7A6#27F3FE71E71F1CE4
(2040.491192) 0 7A6#28E7FFFF803FFFFB
(2040.494143) 0 7A6#29F3F7F3CFCE1FE7
(2040.497150) 0 7A6#2AF39FE7FFE7FF3F
(2040.500150) 0 7A6#2BFF9FF3FE78E73F
(2040.503166) 0 7A6#2C9CE4E7FFFF803F
(2040.506157) 0 7A6#2DFFFBF3F7F3CFCF
(2040.509163) 0 7A6#2E03E0039FE7FFE7
(2040.512178) 0 7A6#2FFF3FFF9FF3FE7C
(2040.515194) 0 7A6#20E73F0000000000
(2040.517473) 0 7AE#037F367800000000
(2040.518432) 0 7AE#037F367800000000
(2040.524262) 0 7AE#0176000000000000
(2040.547612) 0 7A6#10E1369CE4E7FFFF
(2040.548636) 0 7AE#3000010000000000
(2040.550171) 0 7A6#21803FFFF9F3E7F3
(2040.553921) 0 7A6#22CFCFE0E0039FE7
(2040.556784) 0 7A6#23FFE7FF3FFF9FF3
(2040.559702) 0 7A6#24FE7E673F9E4E4F
(2040.562182) 0 7A6#25FFFF803FFFFDF3
(2040.565157) 0 7A6#26EFF3CFCFFC67FF
(2040.568346) 0 7A6#279FE7FFE7FF9FF3
(2040.571146) 0 7A6#289FE7FE7E273F9E
(2040.574169) 0 7A6#294E4FFFFF803FFF
(2040.578240) 0 7A6#2AFCF1CFF3CFCE7E
(2040.581152) 0 7A6#2B63F39FE7FFE7FF
(2040.584167) 0 7A6#2C8FE39FC7FE7F27
(2040.587301) 0 7A6#2D1F1E4E4FFFFF80
(2040.590140) 0 7A6#2E3FFFFE7B9FF3CF
(2040.593148) 0 7A6#2FCE3C71E39FE7FF
(2040.596180) 0 7A6#20E7FFC7C79F8FFE
(2040.599171) 0 7A6#217F078E3E0E0FFF
(2040.602178) 0 7A6#22FF803FFFFF1E3F
(2040.605170) 0 7A6#23F3CFCF00F8079F
(2040.608185) 0 7A6#24E1FFE7FFE00F80
(2040.611168) 0 7A6#251FFE7F87C07F1F
(2040.614208) 0 7A6#261FFFFF803FFFFF
(2040.617183) 0 7A6#27C0FFF3CFCF81FC
(2040.620182) 0 7A6#280F9FF1FFE7FFF8
(2040.623166) 0 7A6#293F807FFE7FC7E0
(2040.626189) 0 7A6#2AFF1F1FFFFF803F
(2040.629203) 0 7A6#2BFFFFFFFFFFFFFF
(2040.632210) 0 7A6#2CFFFFFFFFFFFFFF
(2040.635209) 0 7A6#2DFFFFFFFFFFFFFF
(2040.638208) 0 7A6#2EFFFFFFFFFFFFFF
(2040.641216) 0 7A6#2F803FFFFFFFFFFF
(2040.644216) 0 7A6#20FFFF0000000000
(2040.646471) 0 7AE#037F367800000000
(2040.647430) 0 7AE#037F367800000000
(2040.653261) 0 7AE#0176000000000000
(2040.681780) 0 7A6#10E136FFFFFFFFFF
(2040.682804) 0 7AE#3000010000000000
(2040.684203) 0 7A6#21FFFFFFFFFFFFFF
(2040.687370) 0 7A6#22FFFFFFFFFFFFFF
(2040.690224) 0 7A6#23FFFF803FFFFFFF
(2040.693208) 0 7A6#24FFFFFFFFFFFFFF
(2040.696208) 0 7A6#25FFFFFFFFFFFFFF
(2040.699208) 0 7A6#26FFFFFFFFFFFFFF
(2040.702215) 0 7A6#27FFFFFFFF803FFF
(2040.705214) 0 7A6#28FFFFFFFFFFFFFF
(2040.708230) 0 7A6#29FFFFFFFFFFFFFF
(2040.711221) 0 7A6#2AFFFFFFFFFFFFFF
(2040.714236) 0 7A6#2BFFFFFFFFFFFF80
(2040.717224) 0 7A6#2C3FFFFFFFFFFFFF
(2040.720223) 0 7A6#2DFFFFFFFFFFFFFF
(2040.723223) 0 7A6#2EFFFFFFFFFFFFFF
(2040.726238) 0 7A6#2FFFFFFFFFFFFFFF
(2040.729221) 0 7A6#20FF803FFFFE079F
(2040.732220) 0 7A6#21FFFFFFFFFC07E0
(2040.735196) 0 7A6#22FF3CF07807E7FF
(2040.738227) 0 7A6#23FFFFFFFFFFFFFF
(2040.741226) 0 7A6#24FFFFFF803FFFFE
(2040.744210) 0 7A6#25039FFFFFFFFFFC
(2040.747320) 0 7A6#2603C07F3CE03807
(2040.750224) 0 7A6#27FFFFFFFFFFEFFF
(2040.753574) 0 7A6#28FFFFFFFFFF803F
(2040.759226) 0 7A6#29FFFE719FFFFFFF
(2040.762248) 0 7A6#2AFFFCF18E3F1CC7
(2040.765238) 0 7A6#2B1F3FFFFFFFFFFF
(2040.769165) 0 7A6#2CCFFFFFFFFFFFFF
(2040.773131) 0 7A6#2D803FFFFE799F1F
(2040.775202) 0 7A6#2E8783E3FCF99F3F
(2040.778178) 0 7A6#2F0CCF9F3FE64783
(2040.781217) 0 7A6#20E3C90000000000
(2040.783472) 0 7AE#037F367800000000
(2040.784431) 0 7AE#037F367800000000
(2040.789254) 0 7AE#0176000000000000
(2040.823946) 0 7A6#10E13683FC391CE7
(2040.824969) 0 7AE#3000010000000000
(2040.826208) 0 7A6#21FFFF803FFFFE71
(2040.829166) 0 7A6#229E4F7339C9FCF9
(2040.832206) 0 7A6#239F3F04CF9F3FE6
(2040.835173) 0 7A6#243339C9C7CFFB98
(2040.838236) 0 7A6#25CCE7FFFF803FFF
(2040.841179) 0 7A6#26FE039CE7F31F9C
(2040.844210) 0 7A6#27FCF99F3F20CF9F
(2040.847202) 0 7A6#283FE6731F9CCFCF
(2040.850208) 0 7A6#29FF99CE4FFFFF80
(2040.853207) 0 7A6#2A3FFFFE079C0703
(2040.856215) 0 7A6#2B8380FCF99F3F30
(2040.859182) 0 7A6#2CCF9F3FE6738380
(2040.862206) 0 7A6#2DCFCFF819CE4FFF
(2040.865221) 0 7A6#2EFF803FFFFE7F9C
(2040.868347) 0 7A6#2FFE73F19FFCF18E
(2040.871178) 0 7A6#203F38C71F3FE673
(2040.874194) 0 7A6#21F19FCFCFF399CE
(2040.877304) 0 7A6#224FFFFF803FFFFE
(2040.880168) 0 7A6#237F9E4E6339C9FC
(2040.883207) 0 7A6#2403C07F3CE03F3F
(2040.886174) 0 7A6#25E67339C9CFCFF3
(2040.889206) 0 7A6#2619CF1FFFFF803F
(2040.892205) 0 7A6#27FFFE7FCF1F1383
(2040.895212) 0 7A6#28E3FC07E0FF3CF0
(2040.898204) 0 7A6#297F3FE67383E3CF
(2040.901204) 0 7A6#2AE3F899CF1FFFFF
(2040.904243) 0 7A6#2B803FFFFFFFFFFF
(2040.907362) 0 7A6#2CFFFFFFFFFFFFFF
(2040.910240) 0 7A6#2DFFFFFFFFFFFFFF
(2040.913232) 0 7A6#2EFFFFFFFFFFFF9F
(2040.916255) 0 7A6#2FFFFF803FFFFFFF
(2040.919270) 0 7A6#20FFFF0000000000
(2040.921462) 0 7AE#037F367800000000
(2040.922421) 0 7AE#037F367800000000
(2040.928306) 0 7AE#0176000000000000
(2040.967320) 0 7A6#10E136FFFFFFFFFF
(2040.968344) 0 7AE#3000010000000000
(2040.970255) 0 7A6#21FFFFFFFFFFFFFF
(2040.973263) 0 7A6#22FFFFFFFFFFFFFF
(2040.976230) 0 7A6#23FC3FFFFF803FFF
(2040.979261) 0 7A6#24FFFFFFFFFFFFFF
(2040.982260) 0 7A6#25FFFFFFFFFFFFFF
(2040.985260) 0 7A6#26FFFFFFFFFFFFFF
(2040.988266) 0 7A6#27FFFFFFFFFFFF80
(2040.991250) 0 7A6#283FFFFF81C07FFF
(2040.994241) 0 7A6#29FFFF9FF3FFFFFE
(2040.997248) 0 7A6#2A67FFFFFCFFFFFF
(2041.000240) 0 7A6#2B3FFCFFFF3FFFFF
(2041.003231) 0 7A6#2CFF803FFFFF00C0
(2041.006255) 0 7A6#2D3FFFFFFFFEF3FF
(2041.009244) 0 7A6#2EFFFE67FFFFFFFF
(2041.012260) 0 7A6#2FFFFF3FFCFFFF3F
(2041.015259) 0 7A6#20FFFFFF803FFFFE
(2041.018250) 0 7A6#213CCF1FFFFFFFFC
(2041.021250) 0 7A6#22F3FFFFFE67FFFF
(2041.024249) 0 7A6#23FFFFFFFF3FFCFF
(2041.027296) 0 7A6#24FF3FFFFFFF803F
(2041.030231) 0 7A6#25FFFE7FCF9C1FCE
(2041.033206) 0 7A6#263998323FE1F264
(2041.036230) 0 7A6#277C7C1CCE78FF3E
(2041.039237) 0 7A6#281C9F8F3C1FFFFF
(2041.042244) 0 7A6#29803FFFFE7FCF99
(2041.045188) 0 7A6#2ACFCE399CF19FDC
(2041.048194) 0 7A6#2BE4633939CCCE72
(2041.051194) 0 7A6#2C7F3DCC4F2739CF
(2041.054265) 0 7A6#2DFFFF803FFFFE7F
(2041.057208) 0 7A6#2ECF98FFE4939CF3
(2041.060224) 0 7A6#2F9FFCCE673398FC
(2041.063272) 0 7A6#20E4E70000000000
(2041.067318) 0 7AE#037F367800000000
(2041.068276) 0 7AE#037F367800000000
(2041.074252) 0 7AE#0176000000000000
(2041.108262) 0 7A6#10E1363F3FCCE673
(2041.109286) 0 7AE#3000010000000000
(2041.111270) 0 7A6#2138FFFFFF803FFF
(2041.114229) 0 7A6#22FE7FCF9C1FE493
(2041.117204) 0 7A6#239CF39FC0CE6730
(2041.120244) 0 7A6#241C1CE4E03F3C0C
(2041.123259) 0 7A6#25E6033C1FFFFF80
(2041.127274) 0 7A6#263FFFFE3CCF1F8F
(2041.130209) 0 7A6#27E4939CF39F9CCE
(2041.133224) 0 7A6#286733FF8CE4E7FF
(2041.136255) 0 7A6#2939CCE67F3F8FFF
(2041.139246) 0 7A6#2AFF803FFFFF00C0
(2041.142214) 0 7A6#2B39CFF1C79CF39F
(2041.145205) 0 7A6#2C98E4673939CCF1
(2041.148213) 0 7A6#2DF27F398C4F2739
(2041.151277) 0 7A6#2ECFFFFF801FFFFF
(2041.154258) 0 7A6#2F81C07C1FF1C79E
(2041.158137) 0 7A6#20339FC4F2673C7C
(2041.162885) 0 7A6#211CF1F8FF9C4C9F
(2041.165252) 0 7A6#228F9C1FFFFF009F
(2041.168322) 0 7A6#23FFFFFFFFFFFFFF
(2041.171273) 0 7A6#24FFFFFFFFFFFFFF
(2041.174272) 0 7A6#25FFFFFFFFFFFFFF
(2041.177295) 0 7A6#26FFFFFFFFFFFFFF
(2041.180271) 0 7A6#27208FFFFFFFFFFF
(2041.183286) 0 7A6#28FFFFFFFFFFFFFF
(2041.186302) 0 7A6#29FFFFFFFFFFFFFF
(2041.189294) 0 7A6#2AFFFFFFFFFFFFFF
(2041.192261) 0 7A6#2BFFFE20C3FFFFFF
(2041.195284) 0 7A6#2CFFFFFFFFFFFFFF
(2041.198284) 0 7A6#2DFFFFFFFFFFFFFF
(2041.201283) 0 7A6#2EFFFFFFFFFFFFFF
(2041.204266) 0 7A6#2FFFFFFFF860E000
(2041.207354) 0 7A6#2000000000000000
(2041.210456) 0 7AE#037F367800000000
(2041.211416) 0 7AE#037F367800000000
(2041.217246) 0 7AE#0176000000000000
(2041.252397) 0 7A6#10E1360000000000
(2041.254396) 0 7AE#3000010000000000
(2041.256395) 0 7A6#2100000000000000
(2041.259401) 0 7A6#2200000000000000
(2041.262288) 0 7A6#23000000000000E0
(2041.265287) 0 7A6#24F8000000000000
(2041.268310) 0 7A6#2500000000000000
(2041.271293) 0 7A6#2600000000000000
(2041.274292) 0 7A6#2700000000000000
(2041.277250) 0 7A6#2803E0EB0042001E
(2041.280266) 0 7A6#290001009C620000
(2041.283290) 0 7A6#2A90620000000000
(2041.286289) 0 7A6#2B00FFFFFF000000
(2041.289288) 0 7A6#2C00000200000000
(2041.292288) 0 7A6#2D0000006C6A0000
(2041.295303) 0 7A6#2E3FFFFFFFFFFFFF
(2041.298318) 0 7A6#2FFFFFFFFFFFFFFF
(2041.301310) 0 7A6#20FFFFFFFFFFFFFF
(2041.304293) 0 7A6#21FFFFFFFFFFFFFF
(2041.307308) 0 7A6#22FF803FFFFFFFFF
(2041.310379) 0 7A6#23FFFFFFFFFFFFFF
(2041.313298) 0 7A6#24FFFFFFFFFFFFFF
(2041.316298) 0 7A6#25FFFFFFFFFFFFFF
(2041.319305) 0 7A6#26FFFFFF803FFFFF
(2041.322296) 0 7A6#27FFFFC0FFFC007F
(2041.325288) 0 7A6#28FFFFFFFFE7FFFF
(2041.328296) 0 7A6#29FFFFE01FE7FFFF
(2041.331295) 0 7A6#2AFFFFFFFFFF803F
(2041.334271) 0 7A6#2BFFFFFFFF1E3FFC
(2041.337302) 0 7A6#2C007FFFFFFFF3E7
(2041.340300) 0 7A6#2DFFFFFFFFE007E7
(2041.343300) 0 7A6#2EFFFFFFFFFFFFFF
(2041.346292) 0 7A6#2F803FFFFFFFFE73
(2041.349314) 0 7A6#209FFC0000000000
(2041.351458) 0 7AE#037F367800000000
(2041.352416) 0 7AE#037F367800000000
(2041.359402) 0 7AE#0176000000000000
(2041.411026) 0 7A6#10E136FFFFFFFFFF
(2041.412049) 0 7AE#3000010000000000
(2041.413304) 0 7A6#21F3FFFFFFFFFFE7
(2041.416312) 0 7A6#22E3FFFFFFFFFFFF
(2041.419311) 0 7A6#23FFFF803FFFFFFF
(2041.422294) 0 7A6#24FCF3CFFCFFFFFF
(2041.425310) 0 7A6#25FFFFF3FFFFFFFF
(2041.428300) 0 7A6#26FFE7F1FFFFFFFF
(2041.431308) 0 7A6#27FFFFFFFF803FFF
(2041.434291) 0 7A6#28FFFFFDFFEFFCFF
(2041.437298) 0 7A6#29F3F07F83C0E798
(2041.440282) 0 7A6#2A7F827FE7F9E7C1
(2041.443313) 0 7A6#2BFE0FFFFFFFFF80
(2041.446297) 0 7A6#2C3FFFFFFFF9E7E7
(2041.449287) 0 7A6#2DFCFFF3E03F01C0
(2041.452294) 0 7A6#2EE7903F007FE7FC
(2041.455318) 0 7A6#2FE7807C07FFFFFF
(2041.458334) 0 7A6#20FF803FFFFFFFFB
(2041.461269) 0 7A6#21F3F7FCFFF3C71E
(2041.464252) 0 7A6#2238F3E7871E387F
(2041.468250) 0 7A6#23E7FCE71E38E3FF
(2041.471329) 0 7A6#24FFFFFF803FFFFF
(2041.474288) 0 7A6#25FFFBF3F7FC00F3
(2041.477272) 0 7A6#268F8C7CF3E78F9C
(2041.480287) 0 7A6#277C7FE7FCE73F31
(2041.483318) 0 7A6#28F3FFFFFFFF803F
(2041.487228) 0 7A6#29FFFFFFFBF3F7FC
(2041.489292) 0 7A6#2A00F39FCCFFF3E7
(2041.492284) 0 7A6#2B9F9CFE7FE7FCE7
(2041.495323) 0 7A6#2C0FF3FFFFFFFFFF
(2041.498314) 0 7A6#2D803FFFFFFFFBF3
(2041.501290) 0 7A6#2EF7FCFFF3800CFF
(2041.504289) 0 7A6#2FF3E79F9CFE7FE7
(2041.507336) 0 7A6#20FCE70000000000
(2041.509455) 0 7AE#037F367800000000
(2041.510414) 0 7AE#037F367800000000
(2041.516237) 0 7AE#0176000000000000
(2041.568066) 0 7A6#10E13681F3FFFFFF
(2041.569089) 0 7AE#3000010000000000
(2041.570328) 0 7A6#21FFFF803FFFFFFF
(2041.573312) 0 7A6#22F9F3E7FCFFF380
(2041.577230) 0 7A6#230CFFF3E79F9CFE
(2041.579309) 0 7A6#247FE7FCE7F073FF
(2041.582332) 0 7A6#25FFFFFFFF803FFF
(2041.586275) 0 7A6#26FFFFFDF3EFFCFF
(2041.590192) 0 7A6#27F39FFCFFF3E79F
(2041.592296) 0 7A6#289CFE7FE7F9E7FE
(2041.595327) 0 7A6#2933FFFFFFFFFF80
(2041.598310) 0 7A6#2A3FFFFFFFFCF1CF
(2041.601294) 0 7A6#2BFCFFF38FCC7CF3
(2041.604309) 0 7A6#2CE79F9C7C7FE7F1
(2041.607315) 0 7A6#2DE73F31F3FFFFFF
(2041.610331) 0 7A6#2EFF803FFFFFFFFE
(2041.613291) 0 7A6#2F7B9FFCFFF3C78E
(2041.616290) 0 7A6#2038F3E79F9E387F
(2041.619290) 0 7A6#21E7E3E71E38E3FF
(2041.622353) 0 7A6#22FFFFFF803FFFFF
(2041.625304) 0 7A6#23FFFF1E3FFC0073
(2041.628320) 0 7A6#24E01F01F0E79F9F
(2041.631319) 0 7A6#25007FE007E7807C
(2041.634606) 0 7A6#2607FFFFFFFF803F
(2041.637341) 0 7A6#27FFFFFFFFC0FFFC
(2041.640316) 0 7A6#280073F03F83F8E7
(2041.643316) 0 7A6#299F9F827FE01FE7
(2041.647282) 0 7A6#2AC0FE0FFFFFFFFF
(2041.650345) 0 7A6#2B803FFFFFFFFFFF
(2041.653336) 0 7A6#2CFFFFFFF3FFFFFF
(2041.656360) 0 7A6#2DFFFFFFFCFE7FFF
(2041.659343) 0 7A6#2EFFFFFFFFFFFFFF
(2041.663220) 0 7A6#2FFFFF803FFFFFFF
(2041.665372) 0 7A6#20FFFF0000000000
(2041.668450) 0 7AE#037F367800000000
(2041.669410) 0 7AE#037F367800000000
(2041.675240) 0 7AE#0176000000000000
(2041.726041) 0 7A6#10E136FFFFFFF3FF
(2041.727984) 0 7AE#3000010000000000
(2041.729118) 0 7A6#21FFFFFFFFFFFC7C
(2041.731366) 0 7A6#227FFFFFFFFFFFFF
(2041.734358) 0 7A6#23FFFFFFFF803FFF
(2041.737994) 0 7A6#24FFFFFFFFFFFFFF
(2041.740352) 0 7A6#25C3FFFFFFFFFFFF
(2041.743343) 0 7A6#26FE00FFFFFFFFFF
(2041.746366) 0 7A6#27FFFFFFFFFFFF80
(2041.749366) 0 7A6#283FFFFFFFFFFFFF
(2041.752357) 0 7A6#29FFFFC7FFFFFFFF
(2041.755355) 0 7A6#2AFFFFFF01FFFFFF
(2041.759312) 0 7A6#2BFFFFFFFFFFFFFF
(2041.762358) 0 7A6#2CFF803FFFFFFFFF
(2041.765374) 0 7A6#2DFFFFFFFFFFFFFF
(2041.772151) 0 7A6#2EFFFFFFFFFFFFFF
(2041.774374) 0 7A6#2FFFFFFFFFFFFFFF
(2041.777365) 0 7A6#20FFFFFF803FFFFF
(2041.780348) 0 7A6#21FFFFFFC0F3FFFF
(2041.783372) 0 7A6#22FFFFFFFFFFFFFF
(2041.786339) 0 7A6#23FFFFFFFF0380FF
(2041.789362) 0 7A6#24FFFFFFFFFF803F
(2041.792346) 0 7A6#25FFFFFFFFFFC073
(2041.795361) 0 7A6#26FFFFFFFFFFFFFF
(2041.798361) 0 7A6#27FFFFFFFFFFFE01
(2041.801352) 0 7A6#28807FFFFFFFFFFF
(2041.804368) 0 7A6#29803FFFFFFFFFFF
(2041.807350) 0 7A6#2ACE33FFFFFFFFFF
(2041.810366) 0 7A6#2BFFFFFFFFFFFFFF
(2041.813333) 0 7A6#2CFC799E3FFFFFFF
(2041.816364) 0 7A6#2DFFFF803FFFFFFF
(2041.819316) 0 7A6#2EFFFFCF33E3F0F0
(2041.822315) 0 7A6#2F7C7F93C7918F8F
(2041.825363) 0 7A6#2039E30000000000
(2041.828265) 0 7AE#037F367800000000
(2041.829224) 0 7AE#037F367800000000
(2041.834231) 0 7AE#0176000000000000
(2041.869554) 0 7A6#10E136FCFF9F3FFF
(2041.870577) 0 7AE#3000010000000000
(2041.872368) 0 7A6#21FFFFFFFF803FFF
(2041.875328) 0 7A6#22FFFFFFFFCE33C9
(2041.878326) 0 7A6#23EE67393F8F938C
(2041.881334) 0 7A6#24672739C9FCFF9F
(2041.884580) 0 7A6#253FFFFFFFFFFF80
(2041.887379) 0 7A6#263FFFFFFFFFFFC0
(2041.890322) 0 7A6#27739CFE63F39F9F
(2041.893330) 0 7A6#28399CE673939CFC
(2041.896378) 0 7A6#29FF9F3FFFFFFFFF
(2041.899369) 0 7A6#2AFF803FFFFFFFFF
(2041.902352) 0 7A6#2BFFC0F380E07070
(2041.905328) 0 7A6#2C1F9F019CE67393
(2041.908366) 0 7A6#2D80FCFF9F3FFFFF
(2041.911388) 0 7A6#2EFFFFFF803FFFFF
(2041.914348) 0 7A6#2FFFFFFFCFF39FCE
(2041.917348) 0 7A6#207E33FF9F3F9CE6
(2041.920323) 0 7A6#2173939FFC799E3F
(2041.923378) 0 7A6#22FFFFFFFFFF803F
(2041.927225) 0 7A6#23FFFFFFFFFFCFF3
(2041.929320) 0 7A6#24C9CC67393F9F93
(2041.932344) 0 7A6#259CE727C7C9FE01
(2041.936288) 0 7A6#26807FFFFFFFFFFF
(2041.938383) 0 7A6#27803FFFFFFFFFFF
(2041.941335) 0 7A6#28CFF9E3E2707C7F
(2041.944334) 0 7A6#299FC79CE78FC7E3
(2041.947374) 0 7A6#2AFF0380FFFFFFFF
(2041.950381) 0 7A6#2BFFFF803FFFFFFF
(2041.953388) 0 7A6#2CFFFFFFFFFFFFFF
(2041.958216) 0 7A6#2DFFFFFFFFFFFFFF
(2041.961182) 0 7A6#2EFFFFFFFFFFFFFF
(2041.963381) 0 7A6#2FFFFFFFFF803FFF
(2041.968218) 0 7A6#20FFFF0000000000
(2041.970441) 0 7AE#037F367800000000
(2041.971400) 0 7AE#037F367800000000
(2041.977254) 0 7AE#0176000000000000
(2042.012850) 0 7A6#10E136FFFFFFFFFF
(2042.013873) 0 7AE#3000010000000000
(2042.015400) 0 7A6#21FFFFFFFFFFFFFF
(2042.018432) 0 7A6#22FFFFFFFFFFFFFF
(2042.021399) 0 7A6#23FFFFFFFFFFFF80
(2042.024390) 0 7A6#243FFFFFFFFFFFFF
(2042.027389) 0 7A6#25FFFFFFFFFFFFFF
(2042.030389) 0 7A6#26FFFFFFFFFFFFFF
(2042.033412) 0 7A6#27FFFFFFFFFFFFFF
(2042.036388) 0 7A6#28FF803FFFFFFFFF
(2042.039403) 0 7A6#29FFFFFFFF3FFFFF
(2042.042410) 0 7A6#2AFFFFFFFFFFFFFF
(2042.046344) 0 7A6#2BFFFFFF3FFFFFFF
(2042.049416) 0 7A6#2CFFFFFF803FFFFF
(2042.052400) 0 7A6#2DFFFFFFFFFFFF3F
(2042.055399) 0 7A6#2EFFFFFFFFFFFFFF
(2042.058391) 0 7A6#2FFFFFFBFFFF3FFF
(2042.061414) 0 7A6#20FFFFFFFFFF803F
(2042.064398) 0 7A6#21FFFFFFFFFFFFFF
(2042.068258) 0 7A6#22FF3FFFFFFFFFFF
(2042.070394) 0 7A6#23FFFFFFFFF3FFFF
(2042.073401) 0 7A6#243FFFFFFFFFFFFF
(2042.077232) 0 7A6#25803FFFFFFFFFFF
(2042.079344) 0 7A6#26FF9C7323E3C8FE
(2042.082351) 0 7A6#274F278F83E3C8E0
(2042.086262) 0 7A6#28F1F93FFFFFFFFF
(2042.088405) 0 7A6#29FFFF803FFFFFFF
(2042.091364) 0 7A6#2AFFFFFF9C7319C9
(2042.094340) 0 7A6#2BC67E271F2739C9
(2042.097372) 0 7A6#2CC673E4F23FFFFF
(2042.100403) 0 7A6#2DFFFFFFFF803FFF
(2042.103378) 0 7A6#2EFFFFFFFFFFC927
(2042.107225) 0 7A6#2F399CCE7E733E73
(2042.109392) 0 7A6#201F9C0000000000
(2042.111440) 0 7AE#037F367800000000
(2042.112398) 0 7AE#037F367800000000
(2042.117230) 0 7AE#0176000000000000
(2042.151112) 0 7A6#10E136CE73CE673F
(2042.152135) 0 7AE#3000010000000000
(2042.153414) 0 7A6#21FFFFFFFFFFFF80
(2042.156413) 0 7A6#223FFFFFFFFFFFFF
(2042.165036) 0 7A6#23C9273980CE7E73
(2042.167378) 0 7A6#243E038380CE73C0
(2042.170410) 0 7A6#25673FFFFFFFFFFF
(2042.173393) 0 7A6#26FF803FFFFFFFFF
(2042.177191) 0 7A6#27FFFFC927399FCE
(2042.179383) 0 7A6#287E733E7FF19FCE
(2042.182390) 0 7A6#2973CFE73FFFFFFF
(2042.185422) 0 7A6#2AFFFFFF803FFFFF
(2042.188389) 0 7A6#2BFFFFFFFFE38F39
(2042.191356) 0 7A6#2CC9CE7E273F2739
(2042.194372) 0 7A6#2DC9CE73E4F23FFF
(2042.197427) 0 7A6#2EFFFFFFFFFF801F
(2042.200426) 0 7A6#2FFFFFFFFFFFFFE3
(2042.203370) 0 7A6#208F39E3CE7E4F3F
(2042.208136) 0 7A6#218F83E3CE78F1F9
(2042.210423) 0 7A6#223FFFFFFFFFFFFF
(2042.213422) 0 7A6#23009FFFFFFFFFFF
(2042.216422) 0 7A6#24FFFFFFFFFFFFFE
(2042.219429) 0 7A6#257FFFFFFFFFFFFF
(2042.222429) 0 7A6#26FFFFFFFFFFFFFF
(2042.225412) 0 7A6#27FFFF208FFFFFFF
(2042.228426) 0 7A6#28FFFFFFFFFFFFFF
(2042.231424) 0 7A6#29FFFE7FFFFFFFFF
(2042.234432) 0 7A6#2AFFFFFFFFFFFFFF
(2042.237423) 0 7A6#2BFFFFFFFE20C3FF
(2042.240430) 0 7A6#2CFFFFFFFFFFFFFF
(2042.243430) 0 7A6#2DFFFFFFFFFFFFFF
(2042.247252) 0 7A6#2EFFFFFFFFFFFFFF
(2042.250424) 0 7A6#2FFFFFFFFFFFF860
(2042.253424) 0 7A6#20E0000000000000
(2042.256398) 0 7AE#037F367800000000
(2042.258364) 0 7AE#037F367800000000
(2042.262417) 0 7AE#0176000000000000
(2042.292461) 0 7A6#10E1360000000000
(2042.293485) 0 7AE#3000010000000000
(2042.295436) 0 7A6#2100000000000000
(2042.298443) 0 7A6#2200000000000000
(2042.301426) 0 7A6#2300000000000000
(2042.304426) 0 7A6#2400E0F800000000
(2042.308248) 0 7A6#2500000000000000
(2042.310424) 0 7A6#2600000000000000
(2042.313439) 0 7A6#2700000000000000
(2042.316430) 0 7A6#28000003E00000EB
(2042.319422) 0 7A6#290033001E000100
(2042.322405) 0 7A6#2A806A0000746A00
(2042.325444) 0 7A6#2B00000000000000
(2042.328426) 0 7A6#2C0000FFFFFF0002
(2042.331442) 0 7A6#2D00000000000000
(2042.334441) 0 7A6#2E90700000000000
(2042.338431) 0 7A6#2F0000000000FC00
(2042.341406) 0 7A6#200C020180006000
(2042.344454) 0 7A6#2100000000000000
(2042.347446) 0 7A6#2200000000000000
(2042.350405) 0 7A6#230387000C070180
(2042.353444) 0 7A6#240060C000000000
(2042.356467) 0 7A6#2500000000000000
(2042.360328) 0 7A6#260000000631800C
(2042.363287) 0 7A6#270701800000C000
(2042.365439) 0 7A6#2800000000000000
(2042.368469) 0 7A6#290000000000000C
(2042.371420) 0 7A6#2A30C0060F830000
(2042.374428) 0 7A6#2B00C00000000000
(2042.377443) 0 7A6#2C00000000000000
(2042.380426) 0 7A6#2D0000080040060D
(2042.383434) 0 7A6#2E8303E063F00000
(2042.386449) 0 7A6#2F00000000000000
(2042.389472) 0 7A6#2000000000000000
(2042.392432) 0 7AE#037F367800000000
(2042.393390) 0 7AE#037F367800000000
(2042.401222) 0 7AE#0176000000000000
(2042.435446) 0 7A6#10E1360000001860
(2042.436470) 0 7AE#3000010000000000
(2042.438414) 0 7A6#2160060D8307F063
(2042.441452) 0 7A6#22F0000000000000
(2042.444452) 0 7A6#2300000000000000
(2042.448146) 0 7A6#24001030200618C3
(2042.450418) 0 7A6#250E3860C0000000
(2042.453457) 0 7A6#2600000000000000
(2042.456456) 0 7A6#2700000000103020
(2042.459408) 0 7A6#280318C60C1860C0
(2042.462464) 0 7A6#2900000000000000
(2042.465471) 0 7A6#2A00000000000000
(2042.468438) 0 7A6#2B1030200318C600
(2042.471445) 0 7A6#2C1860C000000000
(2042.474460) 0 7A6#2D00000000000000
(2042.477459) 0 7A6#2E00000010302003
(2042.480410) 0 7A6#2F18C603F860C000
(2042.483490) 0 7A6#2000000000000000
(2042.487240) 0 7A6#2100000000000018
(2042.489432) 0 7A6#22306001B06C0FF8
(2042.492456) 0 7A6#2360C00000000000
(2042.495463) 0 7A6#2400000000000000
(2042.498454) 0 7A6#25000008304001B0
(2042.501430) 0 7A6#266C1C1860C00000
(2042.504469) 0 7A6#2700000000000000
(2042.507444) 0 7A6#2800000000000C38
(2042.510420) 0 7A6#29C001B06C183860
(2042.513459) 0 7A6#2AC0000000000000
(2042.516459) 0 7A6#2B00000000000000
(2042.519442) 0 7A6#2C0006118000F078
(2042.522442) 0 7A6#2D1CF860C0000000
(2042.527280) 0 7A6#2E00000000000000
(2042.529431) 0 7A6#2F00000000038700
(2042.532470) 0 7A6#2000E00000000000
(2042.536245) 0 7AE#037F367800000000
(2042.537204) 0 7AE#037F367800000000
(2042.545219) 0 7AE#0176000000000000
(2042.577860) 0 7A6#10E136380FDC60F0
(2042.578884) 0 7AE#3000010000000000
(2042.580483) 0 7A6#2100000000000000
(2042.583474) 0 7A6#2200000000000000
(2042.587256) 0 7A6#2300FC0000603007
(2042.589448) 0 7A6#248C607000000000
(2042.592480) 0 7A6#2500000000000000
(2042.595479) 0 7A6#2600000000000000
(2042.598478) 0 7A6#2700000000000000
(2042.601486) 0 7A6#2800000000000000
(2042.604470) 0 7A6#2900000000000000
(2042.608236) 0 7A6#2A00000000000000
(2042.610476) 0 7A6#2B00000000000000
(2042.613475) 0 7A6#2C00000000000000
(2042.616474) 0 7A6#2D00000000000000
(2042.619466) 0 7A6#2E00000000000000
(2042.622481) 0 7A6#2F00000000000000
(2042.625504) 0 7A6#2000000000000000
(2042.628478) 0 7A6#2100000000000000
(2042.631486) 0 7A6#2200000000000000
(2042.634580) 0 7A6#2300000000000000
(2042.637476) 0 7A6#2400000000000000
(2042.640475) 0 7A6#2500000000000000
(2042.643458) 0 7A6#2600000000FC3000
(2042.646466) 0 7A6#2700000001FC0F80
(2042.649449) 0 7A6#286187C3FC0C0000
(2042.652489) 0 7A6#2900000000000000
(2042.655488) 0 7A6#2AFE300000000001
(2042.658456) 0 7A6#2BFE1FC0618FE3FC
(2042.663236) 0 7A6#2C00000000000800
(2042.665452) 0 7A6#2D000000C7300000
(2042.668465) 0 7A6#2E0000018738E071
(2042.671464) 0 7A6#2F9C706000000000
(2042.674488) 0 7A6#2000180000000000
(2042.677430) 0 7AE#037F367800000000
(2042.678389) 0 7AE#037F367800000000
(2042.687211) 0 7AE#0176000000000000
(2042.717751) 0 7A6#10E13600000000C3
(2042.718774) 0 7AE#3000010000000000
(2042.720446) 0 7A6#2130703C3E0E0183
(2042.723461) 0 7A6#223060799830600C
(2042.728130) 0 7A6#23DC3E0E1B3E01E3
(2042.730410) 0 7A6#24718CC730D84663
(2042.733440) 0 7A6#251B018330607D98
(2042.736440) 0 7A6#2630600CE6631B1C
(2042.739424) 0 7A6#27180233998CFE31
(2042.742456) 0 7A6#288C067031818330
(2042.745463) 0 7A6#29606F9830600CC6
(2042.748455) 0 7A6#2A70319818003318
(2042.751454) 0 7A6#2BD8FC31FC7E3E3F
(2042.754462) 0 7A6#2C81833060679830
(2042.757445) 0 7A6#2D600CC63E3F9818
(2042.764180) 0 7A6#2E03F318D8C03180
(2042.769161) 0 7A6#2FC60730018738E0
(2042.772135) 0 7A6#20639C70600CC607
(2042.775044) 0 7A6#21301818063318D8
(2042.778825) 0 7A6#22C030D8CE631B01
(2042.781464) 0 7A6#23FE1FC0618FE060
(2042.784448) 0 7A6#240CC6631B181806
(2042.787438) 0 7A6#25731870C0187076
(2042.790478) 0 7A6#263E0E01FC0F8061
(2042.793445) 0 7A6#2787C0600CC63E0E
(2042.796468) 0 7A6#28180E03B3187000
(2042.799508) 0 7A6#2900000000000000
(2042.802515) 0 7A6#2A00000000000000
(2042.805498) 0 7A6#2B00000000000000
(2042.809408) 0 7A6#2C00300000000000
(2042.811512) 0 7A6#2D00000000000000
(2042.814496) 0 7A6#2E00000000000000
(2042.817511) 0 7A6#2F00000001E00000
(2042.820534) 0 7A6#2000000000000000
(2042.823429) 0 7AE#037F367800000000
(2042.824388) 0 7AE#037F367800000000
(2042.832211) 0 7AE#0176000000000000
(2042.853648) 0 7A6#10E1360000000000
(2042.854672) 0 7AE#3000010000000000
(2042.856519) 0 7A6#2100000000000000
(2042.859511) 0 7A6#2200000000000000
(2042.862510) 0 7A6#23000000007E3F80
(2042.865502) 0 7A6#2400000000198000
(2042.868541) 0 7A6#2500000000000000
(2042.871508) 0 7A6#2606000000000000
(2042.874500) 0 7A6#27FF3FC000000002
(2042.877522) 0 7A6#2801800000000000
(2042.880498) 0 7A6#2900200006000000
(2042.883489) 0 7A6#2A000001C330E000
(2042.886520) 0 7A6#2B00000601800000
(2042.889512) 0 7A6#2C00000000600006
(2042.892511) 0 7A6#2D00000000000180
(2042.895454) 0 7A6#2E3063E0319B8F99
(2042.898454) 0 7A6#2F80D86C386E71B0
(2042.901517) 0 7A6#20F8703600000000
(2042.904484) 0 7A6#2100018030663031
(2042.909097) 0 7A6#229CC61980EC706C
(2042.911575) 0 7A6#237399D860D86E00
(2042.914502) 0 7A6#2400000000018030
(2042.917454) 0 7A6#2567003198C61980
(2042.920437) 0 7A6#26C660C663198C61
(2042.923500) 0 7A6#278CC60000000000
(2042.928065) 0 7A6#2801803063E03198
(2042.930457) 0 7A6#29C61980C660C663
(2042.933472) 0 7A6#2A198C61FCC60000
(2042.936496) 0 7A6#2B00000001C330E0
(2042.939471) 0 7A6#2C703198C61980C6
(2042.942462) 0 7A6#2D60C663198C6180
(2042.945518) 0 7A6#2EC6000000000000
(2042.948477) 0 7A6#2FFF3FC6303398C6
(2042.951532) 0 7A6#2019800000000000
(2042.954420) 0 7AE#037F367800000000
(2042.955379) 0 7AE#037F367800000000
(2042.963214) 0 7AE#0176000000000000
(2042.994601) 0 7A6#10E136EC606C6319
(2042.995624) 0 7AE#3000010000000000
(2042.997480) 0 7A6#21D860D86E000000
(2043.000535) 0 7A6#220000007E3F83E0
(2043.003462) 0 7A6#231D98C398C0D860
(2043.007244) 0 7A6#24386319B0387036
(2043.009532) 0 7A6#2500000000000000
(2043.012532) 0 7A6#2600000000000000
(2043.015515) 0 7A6#2700C00000000180
(2043.018562) 0 7A6#2800000000000000
(2043.021530) 0 7A6#2900000000000000
(2043.024521) 0 7A6#2A00000000C00000
(2043.028158) 0 7A6#2B00018000000000
(2043.030510) 0 7A6#2C0000BE002E0018
(2043.033518) 0 7A6#2D000100A4700000
(2043.036517) 0 7A6#2E98700000000000
(2043.039524) 0 7A6#2F00FFFFFF000000
(2043.042548) 0 7A6#2000000200000000
(2043.045507) 0 7A6#2100000008750000
(2043.048514) 0 7A6#22F81FFF8FF9FFFF
(2043.051514) 0 7A6#23FC03FCFFFFFF80
(2043.054490) 0 7A6#24E3C7FF87F9FFFF
(2043.057545) 0 7A6#25FC00FCFFFFFF80
(2043.060512) 0 7A6#26CE73FF83F9FFFF
(2043.063528) 0 7A6#27FCFC7FFFFFFF80
(2043.067167) 0 7A6#289E79FF93F9FFFF
(2043.069526) 0 7A6#29FCFE3FFFFFFF80
(2043.072518) 0 7A6#2ABFFDFF91F9F83F
(2043.075502) 0 7A6#2BFCFF3CF83FC180
(2043.078516) 0 7A6#2C3CFCFF99F9F01F
(2043.081507) 0 7A6#2DFCFF9CF00F8080
(2043.084490) 0 7A6#2E7E7EFF9CF9E38F
(2043.088400) 0 7A6#2FFCFF9CE3C71C00
(2043.090544) 0 7A6#207E7E0000000000
(2043.093423) 0 7AE#037F367800000000
(2043.095373) 0 7AE#037F367800000000
(2043.101204) 0 7AE#0176000000000000
(2043.120610) 0 7A6#10E136FF9C79C7C7
(2043.121632) 0 7AE#3000010000000000
(2043.123512) 0 7A6#21FCFF9CE7E63E00
(2043.127102) 0 7A6#227E7EFF9E39CFE7
(2043.129502) 0 7A6#23FCFF9CE1FE7F80
(2043.132517) 0 7A6#247E7EFF9F39CFE7
(2043.136220) 0 7A6#25FCFF9CF03E7F80
(2043.138515) 0 7A6#263E7CFF9F99CFE7
(2043.141514) 0 7A6#27FCFF9CFE0E7F80
(2043.144522) 0 7A6#28BE7DFF9F89CFE7
(2043.147512) 0 7A6#29FCFF3CFFC67F80
(2043.150503) 0 7A6#2A9E39FF9FC9C7C7
(2043.153518) 0 7A6#2BFCFE3CE7E63E00
(2043.156526) 0 7A6#2CCF73FF9FC1E38F
(2043.159518) 0 7A6#2DFCFC7CE3C71C00
(2043.170004) 0 7A6#2EE3C7FF9FE1F01F
(2043.172546) 0 7A6#2FFC00FCF00F8080
(2043.175530) 0 7A6#20F81FFF9FF1F83F
(2043.178529) 0 7A6#21FC03FCF81FC180
(2043.181536) 0 7A6#22690010000E0001
(2043.184520) 0 7A6#23001C7500001075
(2043.187567) 0 7A6#2400000000000000
(2043.190542) 0 7A6#25000000FFFFFF00
(2043.193556) 0 7A6#2602000000000000
(2043.196540) 0 7A6#270010760000FFFF
(2043.199548) 0 7A6#28FFFFC0FFFFFFFF
(2043.202563) 0 7A6#29C0FFFFFFFFC0FF
(2043.205570) 0 7A6#2AFFFFFFC0FFFFFF
(2043.208544) 0 7A6#2BFFC0FFFFFFFFC0
(2043.211552) 0 7A6#2CFFFFFFFFC0FFFF
(2043.214543) 0 7A6#2DFFFFC0FFFFFFFF
(2043.217542) 0 7A6#2EC0FFFFFFFFC000
(2043.220526) 0 7A6#2F0022000A000500
(2043.223565) 0 7A6#2001000000000000
(2043.225412) 0 7AE#037F367800000000
(2043.227322) 0 7AE#037F367800000000
(2043.232201) 0 7AE#0176000000000000
(2043.263428) 0 7A6#10E1362476000018
(2043.265404) 0 7AE#3000010000000000
(2043.269344) 0 7A6#2176000000000000
(2043.272164) 0 7A6#2200000000FFFFFF
(2043.274562) 0 7A6#2300020000000000
(2043.277528) 0 7A6#2400006C7600003F
(2043.280536) 0 7A6#25C3CE60C03F99CE
(2043.283511) 0 7A6#2666403F3CCE6700
(2043.286526) 0 7A6#273F3CCE67003F3C
(2043.289518) 0 7A6#28CE67003F3CCE67
(2043.292548) 0 7A6#29003F3CCE67003F
(2043.295500) 0 7A6#2A3CCE67003F99CE
(2043.298539) 0 7A6#2B664003C3E0E0C0
(2043.301554) 0 7A6#2C000022000A0005
(2043.304546) 0 7A6#2D00010080760000
(2043.307560) 0 7A6#2E74760000000000
(2043.310568) 0 7A6#2F00FFFFFF000000
(2043.313575) 0 7A6#2000000200000000
(2043.316550) 0 7A6#21000000C8760000
(2043.319558) 0 7A6#22C00000000C9FFF
(2043.322566) 0 7A6#23FFFFE43FFFFFFF
(2043.325533) 0 7A6#24F07C0C07F3F878
(2043.328531) 0 7A6#250403F3F871E4F1
(2043.331522) 0 7A6#26F3F873FCF98078
(2043.334522) 0 7A6#2773FCF9807873FC
(2043.338463) 0 7A6#28F9F3F871E4F1F3
(2043.340543) 0 7A6#29F8780403F3F87C
(2043.343582) 0 7A6#2A0C07FFF83FFFFF
(2043.346558) 0 7A6#2BFFF09FFFFFFFE4
(2043.349549) 0 7A6#2CC00000000C0026
(2043.352556) 0 7A6#2D000F0005000100
(2043.355532) 0 7A6#2EDC760000D07600
(2043.358587) 0 7A6#2F0000000000FFFF
(2043.361706) 0 7A6#20FF000000000000
(2043.364567) 0 7AE#037F367800000000
(2043.368443) 0 7AE#037F367800000000
(2043.372202) 0 7AE#0176000000000000
(2043.403262) 0 7A6#10E1360000000002
(2043.404285) 0 7AE#3000010000000000
(2043.405589) 0 7A6#2100000000000000
(2043.408554) 0 7A6#223C770000C00000
(2043.411985) 0 7A6#23000C8000000004
(2043.414576) 0 7A6#24000000000003F3
(2043.417568) 0 7A6#25F80C0007FBFC0C
(2043.420560) 0 7A6#26000E1B0E0C000C
(2043.423567) 0 7A6#2703067F800C0306
(2043.427141) 0 7A6#287F800C03060C00
(2043.429533) 0 7A6#290E1B0E0C0007FB
(2043.432580) 0 7A6#2AFC0C0003F3F800
(2043.435572) 0 7A6#2B00000000000080
(2043.438578) 0 7A6#2C00000004C00000
(2043.441562) 0 7A6#2D000C0026000F00
(2043.444562) 0 7A6#2E05000100507700
(2043.447568) 0 7A6#2F00447700000000
(2043.450583) 0 7A6#200000FFFFFF0000
(2043.453590) 0 7A6#2100000002000000
(2043.456574) 0 7A6#2200000000B07700
(2043.459573) 0 7A6#2300C0000000039F
(2043.462580) 0 7A6#24FFFFFFF93FFFFF
(2043.465580) 0 7A6#25FFFC7C0C07FFFE
(2043.468570) 0 7A6#26780403FFFE71E4
(2043.471554) 0 7A6#27F1FFFE73FCF9C0
(2043.474569) 0 7A6#283E73FCF9C03E73
(2043.477560) 0 7A6#29FCF9FFFE71E4F1
(2043.480575) 0 7A6#2AFFFE780403FFFE
(2043.483574) 0 7A6#2B7C0C07FFFE3FFF
(2043.486598) 0 7A6#2CFFFFFC9FFFFFFF
(2043.489581) 0 7A6#2DF9C00000000300
(2043.492580) 0 7A6#2E28000F00050001
(2043.495540) 0 7A6#2F00C4770000B877
(2043.498628) 0 7A6#2000000000000000
(2043.500411) 0 7AE#037F367800000000
(2043.501370) 0 7AE#037F367800000000
(2043.508199) 0 7AE#0176000000000000
(2043.544412) 0 7A6#10E13600000000FF
(2043.545435) 0 7AE#3000010000000000
(2043.546666) 0 7A6#21FFFF0000000000
(2043.549602) 0 7A6#2202000000000000
(2043.552570) 0 7A6#230024780000C000
(2043.555609) 0 7A6#2400000380000000
(2043.558600) 0 7A6#2501000000000003
(2043.561568) 0 7A6#26F3F8000007FBFC
(2043.565102) 0 7A6#2700000E1B0E0000
(2043.570864) 0 7A6#280C03063FC00C03
(2043.573583) 0 7A6#29063FC00C030600
(2043.577101) 0 7A6#2A000E1B0E000007
(2043.579580) 0 7A6#2BFBFC000003F3F8
(2043.582612) 0 7A6#2C00000000000000
(2043.586226) 0 7A6#2D8000000001C000
(2043.588602) 0 7A6#2E0000030028000F
(2043.591592) 0 7A6#2F00050001003878
(2043.594600) 0 7A6#2000002C78000000
(2043.597616) 0 7A6#21000000FFFFFF00
(2043.600607) 0 7A6#2200000000020000
(2043.603582) 0 7A6#2300000000009878
(2043.607157) 0 7A6#240000C000000003
(2043.609588) 0 7A6#259FFFFFFFF93FFF
(2043.612596) 0 7A6#26FFFFFC7E013E40
(2043.615579) 0 7A6#273E7E011C403E7F
(2043.618602) 0 7A6#28CF88F9FE7FCFC1
(2043.621578) 0 7A6#29F9FE7FCFE3F9FE
(2043.624586) 0 7A6#2A7FCFC1F9FE7FCF
(2043.628054) 0 7A6#2B88F9FE7FCF1C79
(2043.630574) 0 7A6#2CFE7FCF3E79FE3F
(2043.634557) 0 7A6#2DFFFFFFFC9FFFFF
(2043.637612) 0 7A6#2EFFF9C000000003
